(1596560211.786721) can0 4E0#C01FFF0F63000000
(1596560211.787732) can0 4E1#FF10003A0000034D
(1596560211.787733) can0 4E2#2C05011E23475900
(1596560211.787733) can0 4E3#0F3C003E003E003E
(1596560211.787734) can0 500#006AB85F00044000
(1596560211.788771) can0 501#0000000000001FFF
(1596560211.788772) can0 502#0000000000001FFF
(1596560211.788772) can0 503#0000000000001FFF
(1596560211.788773) can0 504#0000000000001FFF
(1596560211.789793) can0 505#0000000000001FFF
(1596560211.789793) can0 506#0896598600040002
(1596560211.789794) can0 507#0460D0C70000BFFD
(1596560211.789794) can0 508#0000000000001FFF
(1596560211.791581) can0 509#EC95E0C803FF3FF7
(1596560211.791582) can0 50A#FC77998800007FFF
(1596560211.791583) can0 50B#0000000000001FFF
(1596560211.791583) can0 50C#0000000000001FFF
(1596560211.791767) can0 50D#FC6528B100054002
(1596560211.791768) can0 50E#0000000000001FFF
(1596560211.791768) can0 50F#F043F0CD00007FFF
(1596560211.791769) can0 510#FC77395200044000
(1596560211.793102) can0 511#0480696C0006000A
(1596560211.793102) can0 512#0000000000001FFF
(1596560211.793103) can0 513#047EF2D50005BFFD
(1596560211.793104) can0 514#0000000000001FFF
(1596560211.793834) can0 515#FC7F6AA700048002
(1596560211.793834) can0 516#0000000000001FFF
(1596560211.793835) can0 517#0000000000001FFF
(1596560211.793835) can0 518#0000000000001FFF
(1596560211.795374) can0 519#0000000000001FFF
(1596560211.795375) can0 51A#0000000000001FFF
(1596560211.795376) can0 51B#0462B1170004C000
(1596560211.795376) can0 51C#007D71E600048002
(1596560211.795861) can0 51D#0081C16E00013FFD
(1596560211.795861) can0 51E#F47768EE00047FFD
(1596560211.795862) can0 51F#007EF16D0004BFFF
(1596560211.795862) can0 520#0068507A00044002
(1596560211.797300) can0 521#047851BF00044002
(1596560211.797301) can0 522#FC7DB21000048000
(1596560211.797301) can0 523#006179A900048002
(1596560211.797302) can0 524#006068FC0004BFFE
(1596560211.797876) can0 525#0000000000001FFF
(1596560211.797877) can0 526#0000000000001FFF
(1596560211.797878) can0 527#1080D12700043FFD
(1596560211.797878) can0 528#0000000000001FFF
(1596560211.799512) can0 529#0000000000001FFF
(1596560211.799513) can0 52A#0000000000001FFF
(1596560211.799514) can0 52B#0000000000001FFF
(1596560211.799514) can0 52C#0000000000001FFF
(1596560211.799912) can0 52D#FC60E16F00034002
(1596560211.799913) can0 52E#0462615300007FFD
(1596560211.799914) can0 52F#0000000000001FFF
(1596560211.799922) can0 530#046228FD00007FFF
(1596560211.800916) can0 531#0000000000001FFF
(1596560211.800917) can0 532#F4E0F24B00003FFF
(1596560211.800917) can0 533#006328F200044002
(1596560211.800918) can0 534#0000000000001FFF
(1596560211.801915) can0 535#007F794300048001
(1596560211.801916) can0 536#0000000000001FFF
(1596560211.801916) can0 537#047F9E5800048002
(1596560211.801917) can0 538#14804C670006000A
(1596560211.802935) can0 539#F07CA24000007FFF
(1596560211.802936) can0 53A#0000000000001FFF
(1596560211.802936) can0 53B#0062C0610004C001
(1596560211.802937) can0 53C#0000000000001FFF
(1596560211.803935) can0 53D#0461788C00047FFF
(1596560211.803936) can0 53E#F87368B600047FFE
(1596560211.803936) can0 53F#0000000000001FFF
(1596560211.803937) can0 540#10000A0A0A0A0A01
(1596560211.804965) can0 540#11000A00020A0A02
(1596560211.804965) can0 540#120A0140000A010A
(1596560211.804966) can0 540#13070A0A0A0A0A00
(1596560211.804966) can0 540#1411000000000508
(1596560211.805980) can0 540#1502000A0A400A0A
(1596560211.805981) can0 540#160A0A0A00000A00
(1596560211.805982) can0 540#170A00000A030A0D
(1596560211.805982) can0 540#1802030A400A0002
(1596560211.806998) can0 540#190A0A0A0A0A0A0A
(1596560211.806998) can0 5D0#5904D90001008CF6
(1596560211.806999) can0 5D1#5908DD00020108F8
(1596560211.807000) can0 5E4#82837577C0000058
(1596560211.808943) can0 5E5#8B80638000000000
(1596560211.808944) can0 5E6#0000000000000000
(1596560211.808945) can0 5E7#0000000000000000
(1596560211.808945) can0 5E8#1900000100AB0000
(1596560211.808967) can0 5E9#1EAB00041A1C0204
(1596560211.808968) can0 5EA#007D7F7D807D7073
(1596560211.808969) can0 5EB#001314001A0C0000
(1596560211.808969) can0 5EC#0090011301130000
(1596560211.810041) can0 5ED#0000000000000000
(1596560211.810042) can0 5EE#0000000000000000
(1596560211.810042) can0 5EF#32020004040D3200
(1596560211.837244) can0 4E0#001FFF0F64000000
(1596560211.837262) can0 4E1#FC10003A0000034D
(1596560211.837263) can0 4E2#2C05011E23475900
(1596560211.837264) can0 4E3#0C3C003E003E003E
(1596560211.837264) can0 500#006AC85F00044000
(1596560211.838368) can0 501#0000000000001FFF
(1596560211.838369) can0 502#0000000000001FFF
(1596560211.838370) can0 503#0000000000001FFF
(1596560211.839812) can0 504#0000000000001FFF
(1596560211.839813) can0 505#0000000000001FFF
(1596560211.839813) can0 506#0C76818700044002
(1596560211.839814) can0 507#0860D0C80000BFFD
(1596560211.840478) can0 508#0000000000001FFF
(1596560211.840479) can0 509#EC95E0C803FF3FF6
(1596560211.840480) can0 50A#0077A98800007FFF
(1596560211.840480) can0 50B#0000000000001FFF
(1596560211.840481) can0 50C#0037C15400004008
(1596560211.842014) can0 50D#FC8528B100050002
(1596560211.842015) can0 50E#0000000000001FFF
(1596560211.842016) can0 50F#E44408C300007FFF
(1596560211.842017) can0 510#FC77395200044000
(1596560211.842400) can0 511#0480696C0006000B
(1596560211.842400) can0 512#0000000000001FFF
(1596560211.842401) can0 513#007EF2D50004BFFC
(1596560211.842402) can0 514#0000000000001FFF
(1596560211.843856) can0 515#FC7F72A700048002
(1596560211.843857) can0 516#0000000000001FFF
(1596560211.843857) can0 517#0000000000001FFF
(1596560211.843858) can0 518#0000000000001FFF
(1596560211.844450) can0 519#0000000000001FFF
(1596560211.844451) can0 51A#0000000000001FFF
(1596560211.844451) can0 51B#0462B91700044000
(1596560211.844452) can0 51C#007D71E600048002
(1596560211.846390) can0 51D#F461596E00017FFD
(1596560211.846391) can0 51E#F07758EE00047FFD
(1596560211.846391) can0 51F#007EF16D0004BFFF
(1596560211.846392) can0 520#0068507A00044002
(1596560211.846398) can0 521#047851BF00044002
(1596560211.846398) can0 522#FC7DB21000048000
(1596560211.846399) can0 523#006181A900048002
(1596560211.846400) can0 524#006060FC0004BFFE
(1596560211.847466) can0 525#0000000000001FFF
(1596560211.847466) can0 526#0000000000001FFF
(1596560211.847467) can0 527#1080D12700043FFD
(1596560211.847467) can0 528#0000000000001FFF
(1596560211.848475) can0 529#0000000000001FFF
(1596560211.848476) can0 52A#0027208E00007FFF
(1596560211.848476) can0 52B#0000000000001FFF
(1596560211.848477) can0 52C#0000000000001FFF
(1596560211.849483) can0 52D#FC80E16F00030002
(1596560211.849484) can0 52E#FC62495300007FFD
(1596560211.849484) can0 52F#0000000000001FFF
(1596560211.849485) can0 530#046228FF00007FFF
(1596560211.850502) can0 531#0000000000001FFF
(1596560211.850503) can0 532#0000000000001FFF
(1596560211.850503) can0 533#FC6310F400044002
(1596560211.850504) can0 534#0000000000001FFF
(1596560211.852210) can0 535#007F79420004C001
(1596560211.852211) can0 536#0000000000001FFF
(1596560211.852211) can0 537#047F9E5800048002
(1596560211.852212) can0 538#14804C670006000B
(1596560211.852517) can0 539#F07CAA4000007FFF
(1596560211.852517) can0 53A#0000000000001FFF
(1596560211.852518) can0 53B#0062B8610004C001
(1596560211.852518) can0 53C#0000000000001FFF
(1596560211.853944) can0 53D#0061708C00047FFF
(1596560211.853945) can0 53E#147380B200047FFE
(1596560211.853945) can0 53F#0000000000001FFF
(1596560211.853946) can0 540#00000A0A0A0A0A03
(1596560211.855449) can0 540#01000A00030A0002
(1596560211.855450) can0 540#020A0140000A000A
(1596560211.855451) can0 540#03070A0A0A0A0A00
(1596560211.855451) can0 540#0410000000000508
(1596560211.855538) can0 540#0503000A0A400A0A
(1596560211.855539) can0 540#06000A0A00000A01
(1596560211.855539) can0 540#070A0A010A000A0C
(1596560211.855540) can0 540#0802030A400A0000
(1596560211.857034) can0 540#090A0A0A0A0A0A0A
(1596560211.857034) can0 5D0#5904D90001008BF6
(1596560211.857035) can0 5D1#590C320002009DF7
(1596560211.857036) can0 5E4#83847577BF000058
(1596560211.857596) can0 5E5#8A80628000000000
(1596560211.857598) can0 5E6#0000000000000000
(1596560211.857598) can0 5E7#0000000000000000
(1596560211.857599) can0 5E8#1900000100AC0000
(1596560211.859505) can0 5E9#1EAD00041A1C0204
(1596560211.859506) can0 5EA#007D7F7D807D7073
(1596560211.859506) can0 5EB#001314001A0C0000
(1596560211.859507) can0 5EC#0090011301130000
(1596560211.859566) can0 5ED#0000000000000000
(1596560211.859567) can0 5EE#0000000000000000
(1596560211.859568) can0 5EF#32020004040D3200
(1596560211.886079) can0 4E0#401FFF0F65000000
(1596560211.886517) can0 4E1#FD10003A0000034D
(1596560211.886518) can0 4E2#2C05011E23475900
(1596560211.886518) can0 4E3#0D3C003E003E003E
(1596560211.886519) can0 500#006AC05F00044000
(1596560211.887499) can0 501#0000000000001FFF
(1596560211.887500) can0 502#0000000000001FFF
(1596560211.887500) can0 503#0000000000001FFF
(1596560211.888536) can0 504#0000000000001FFF
(1596560211.888537) can0 505#0000000000001FFF
(1596560211.888537) can0 506#0876718700044002
(1596560211.888538) can0 507#FC60D0C40000FFFD
(1596560211.890068) can0 508#0000000000001FFF
(1596560211.890069) can0 509#EC95E0C803FF3FF4
(1596560211.890078) can0 50A#0077A98800007FFF
(1596560211.890079) can0 50B#0000000000001FFF
(1596560211.890578) can0 50C#0000000000001FFF
(1596560211.890579) can0 50D#FC6538B200054002
(1596560211.890579) can0 50E#0000000000001FFF
(1596560211.890580) can0 50F#0000000000001FFF
(1596560211.892026) can0 510#FC77395200044000
(1596560211.892027) can0 511#0480696C0006000C
(1596560211.892028) can0 512#0000000000001FFF
(1596560211.892028) can0 513#007EF2D50004BFFC
(1596560211.892029) can0 514#0000000000001FFF
(1596560211.892688) can0 515#FC7F6AA700048002
(1596560211.892689) can0 516#0000000000001FFF
(1596560211.892689) can0 517#0000000000001FFF
(1596560211.892690) can0 518#0000000000001FFF
(1596560211.894224) can0 519#0000000000001FFF
(1596560211.894225) can0 51A#0000000000001FFF
(1596560211.894225) can0 51B#0462B91700044000
(1596560211.894226) can0 51C#007D71E600048002
(1596560211.894646) can0 51D#F481596E00013FFD
(1596560211.894647) can0 51E#EC7758F400047FFD
(1596560211.894648) can0 51F#007EF16D0004BFFF
(1596560211.894648) can0 520#0068587A00044002
(1596560211.896832) can0 521#047851BF00044002
(1596560211.896833) can0 522#FC7DB21000048000
(1596560211.896834) can0 523#006181A900048002
(1596560211.896834) can0 524#006060FC0004BFFE
(1596560211.896842) can0 525#0000000000001FFF
(1596560211.896843) can0 526#0000000000001FFF
(1596560211.896843) can0 527#1080D12700043FFD
(1596560211.896844) can0 528#0000000000001FFF
(1596560211.897769) can0 529#0000000000001FFF
(1596560211.897769) can0 52A#0000000000001FFF
(1596560211.897770) can0 52B#0000000000001FFF
(1596560211.897771) can0 52C#0000000000001FFF
(1596560211.899507) can0 52D#FC60D16F00034002
(1596560211.899508) can0 52E#0062615300007FFD
(1596560211.899509) can0 52F#0000000000001FFF
(1596560211.899509) can0 530#0462390000007FFF
(1596560211.899664) can0 531#0000000000001FFF
(1596560211.899666) can0 532#0000000000001FFF
(1596560211.899666) can0 533#FC8310F400040002
(1596560211.899667) can0 534#0000000000001FFF
(1596560211.901051) can0 535#007F79400004C002
(1596560211.901052) can0 536#0000000000001FFF
(1596560211.901052) can0 537#047F9E5800048002
(1596560211.901053) can0 538#14804C670006000C
(1596560211.902478) can0 539#F09CAA4000003FFF
(1596560211.902479) can0 53A#003C3A4100004000
(1596560211.902480) can0 53B#0062B8610004C001
(1596560211.902481) can0 53C#0000000000001FFF
(1596560211.902703) can0 53D#0061708C00047FFF
(1596560211.902704) can0 53E#149380B200043FFE
(1596560211.902705) can0 53F#0021F8CA00007FFE
(1596560211.902705) can0 540#10000A0A0A0A0A01
(1596560211.904135) can0 540#11000A00010A0A02
(1596560211.904136) can0 540#120A0A40000A010A
(1596560211.904136) can0 540#13070A0A0A0A0A00
(1596560211.904137) can0 540#1411000000000508
(1596560211.905672) can0 540#1504000A0A400A0A
(1596560211.905673) can0 540#160A0A0A00000A02
(1596560211.905673) can0 540#170A0A010A000A0D
(1596560211.905674) can0 540#18020304400A0000
(1596560211.905767) can0 540#1900000000000000
(1596560211.905768) can0 5D0#5904D90001008BF6
(1596560211.905769) can0 5D1#5908E10002010BF8
(1596560211.905770) can0 5E4#82837577C0000058
(1596560211.906854) can0 5E5#8B80638000000000
(1596560211.906855) can0 5E6#0000000000000000
(1596560211.906856) can0 5E7#0000000000000000
(1596560211.906856) can0 5E8#1900000100AB0000
(1596560211.907877) can0 5E9#1EAF00041A1C0204
(1596560211.907878) can0 5EA#007D7F7D807D7073
(1596560211.907889) can0 5EB#001314001A0C0000
(1596560211.907890) can0 5EC#0090011301130000
(1596560211.908874) can0 5ED#0000000000000000
(1596560211.908875) can0 5EE#0000000000000000
(1596560211.908876) can0 5EF#32020004040D3200
(1596560211.936493) can0 4E0#801FFF0F66000000
(1596560211.938008) can0 4E1#FE10003A0000034D
(1596560211.938008) can0 4E2#2C05011E23475900
(1596560211.938009) can0 4E3#0E3C003E003E003E
(1596560211.938010) can0 500#006AB85F00044000
(1596560211.938293) can0 501#0000000000001FFF
(1596560211.938293) can0 502#0000000000001FFF
(1596560211.938294) can0 503#0020D46C0000BFFF
(1596560211.938295) can0 504#0000000000001FFF
(1596560211.939671) can0 505#0000000000001FFF
(1596560211.939672) can0 506#0896718700040002
(1596560211.939673) can0 507#F860D0C20000FFFD
(1596560211.939673) can0 508#0023B8D300007FFF
(1596560211.940358) can0 509#EC95E0C803FF3FF3
(1596560211.940359) can0 50A#0077A98800007FFF
(1596560211.940360) can0 50B#003FF12800007FFF
(1596560211.940360) can0 50C#0000000000001FFF
(1596560211.941382) can0 50D#FC6540B200054002
(1596560211.941383) can0 50E#0000000000001FFF
(1596560211.941383) can0 50F#0000000000001FFF
(1596560211.941384) can0 510#0077395200044000
(1596560211.942378) can0 511#0480696C0006000D
(1596560211.942379) can0 512#0000000000001FFF
(1596560211.942379) can0 513#007EEAD50005BFFD
(1596560211.942380) can0 514#0000000000001FFF
(1596560211.943396) can0 515#FC7F6AA700048002
(1596560211.943397) can0 516#0000000000001FFF
(1596560211.943397) can0 517#0000000000001FFF
(1596560211.943398) can0 518#0000000000001FFF
(1596560211.944414) can0 519#0000000000001FFF
(1596560211.944415) can0 51A#0000000000001FFF
(1596560211.944416) can0 51B#0462B91700047FFF
(1596560211.944416) can0 51C#007D71E600048002
(1596560211.945419) can0 51D#EC61616E00017FFD
(1596560211.945419) can0 51E#F07760F400047FFD
(1596560211.945420) can0 51F#007EF96D0004BFFF
(1596560211.945420) can0 520#0068587A00044002
(1596560211.946399) can0 521#047859BF00044002
(1596560211.946400) can0 522#FC7DB21000048000
(1596560211.946401) can0 523#006181A900048002
(1596560211.946401) can0 524#006060FC0004BFFE
(1596560211.947442) can0 525#0000000000001FFF
(1596560211.947442) can0 526#0000000000001FFF
(1596560211.947443) can0 527#1080D12700043FFD
(1596560211.947443) can0 528#0000000000001FFF
(1596560211.948463) can0 529#0000000000001FFF
(1596560211.948464) can0 52A#0000000000001FFF
(1596560211.948464) can0 52B#0000000000001FFF
(1596560211.948465) can0 52C#003FF12400004008
(1596560211.949460) can0 52D#FC80D16F00030002
(1596560211.949460) can0 52E#0462695200007FFD
(1596560211.949461) can0 52F#0000000000001FFF
(1596560211.949461) can0 530#0862490100007FFF
(1596560211.950477) can0 531#0000000000001FFF
(1596560211.950478) can0 532#0000000000001FFF
(1596560211.950479) can0 533#006318F300044002
(1596560211.950479) can0 534#0000000000001FFF
(1596560211.951984) can0 535#007F794100048002
(1596560211.951984) can0 536#0000000000001FFF
(1596560211.951985) can0 537#047F9E5800048002
(1596560211.951986) can0 538#14804C670006000D
(1596560211.952515) can0 539#F87CB24000007FFF
(1596560211.952516) can0 53A#0000000000001FFF
(1596560211.952516) can0 53B#0062B0610004C001
(1596560211.952517) can0 53C#0000000000001FFF
(1596560211.953648) can0 53D#0461708C00047FFF
(1596560211.953649) can0 53E#087378B300047FFE
(1596560211.953649) can0 53F#0000000000001FFF
(1596560211.953659) can0 540#00000A0A000A0A01
(1596560211.954535) can0 540#0100000003000A01
(1596560211.954535) can0 540#020A0A41000A010A
(1596560211.954536) can0 540#03070A0A0A0A0A00
(1596560211.954537) can0 540#0411000000000508
(1596560211.955992) can0 540#0503000A0A400A0A
(1596560211.955993) can0 540#060A0A0000000A03
(1596560211.955993) can0 540#070A0A000A030A0D
(1596560211.955994) can0 540#0802030A400A0000
(1596560211.956641) can0 540#090A0A0A0A0A0A0A
(1596560211.956642) can0 5D0#5904D90001008AF6
(1596560211.956643) can0 5D1#5908E40002010CF7
(1596560211.956643) can0 5E4#83837577BF000057
(1596560211.957564) can0 5E5#8A80638000000000
(1596560211.957565) can0 5E6#0000000000000000
(1596560211.957565) can0 5E7#0000000000000000
(1596560211.957566) can0 5E8#1900000100AB0000
(1596560211.958585) can0 5E9#1EB100041A1C0204
(1596560211.958585) can0 5EA#007D7F7D807D7073
(1596560211.958586) can0 5EB#001314001A0C0000
(1596560211.958587) can0 5EC#0090011301130000
(1596560211.959605) can0 5ED#0000000000000000
(1596560211.959606) can0 5EE#0000000000000000
(1596560211.959607) can0 5EF#32020004040D3200
(1596560211.985374) can0 4E0#C01FFF0F67000000
(1596560211.986376) can0 4E1#FF10003A0000034D
(1596560211.986377) can0 4E2#2C05011E23475900
(1596560211.986378) can0 4E3#0F3C003E003E003E
(1596560211.986378) can0 500#006AA05F00044000
(1596560211.987410) can0 501#0000000000001FFF
(1596560211.987411) can0 502#0038897100007FFF
(1596560211.987412) can0 503#0000000000001FFF
(1596560211.987412) can0 504#0000000000001FFF
(1596560211.988940) can0 505#0000000000001FFF
(1596560211.988941) can0 506#0C76818700044002
(1596560211.988942) can0 507#0060D0C50000BFFD
(1596560211.988942) can0 508#0000000000001FFF
(1596560211.989443) can0 509#E4B530C900017FF4
(1596560211.989444) can0 50A#0477B18800007FFF
(1596560211.989444) can0 50B#1840412800004001
(1596560211.989445) can0 50C#0000000000001FFF
(1596560211.990448) can0 50D#006538B200054002
(1596560211.990448) can0 50E#003A11A1000046FC
(1596560211.990449) can0 50F#0000000000001FFF
(1596560211.990450) can0 510#0077395200044000
(1596560211.991902) can0 511#0480696C0006000D
(1596560211.991903) can0 512#0036998200004007
(1596560211.991904) can0 513#007EE2D50005BFFD
(1596560211.991904) can0 514#0000000000001FFF
(1596560211.992474) can0 515#FC7F72A700048002
(1596560211.992475) can0 516#0000000000001FFF
(1596560211.992476) can0 517#0000000000001FFF
(1596560211.992476) can0 518#0000000000001FFF
(1596560211.993589) can0 519#003FAB030000BFFF
(1596560211.993590) can0 51A#0000000000001FFF
(1596560211.993591) can0 51B#0462C11700047FFF
(1596560211.993591) can0 51C#007D71E600048002
(1596560211.994482) can0 51D#EC81616E00013FFD
(1596560211.994483) can0 51E#F07760F200047FFD
(1596560211.994483) can0 51F#007EF16D0004BFFF
(1596560211.994484) can0 520#0068607A00044002
(1596560211.996668) can0 521#047859C000044002
(1596560211.996669) can0 522#FC7DB20F00048000
(1596560211.996670) can0 523#006189A900048002
(1596560211.996671) can0 524#008060FC00043FFE
(1596560211.996678) can0 525#0000000000001FFF
(1596560211.996678) can0 526#0000000000001FFF
(1596560211.996679) can0 527#0C60992700047FFD
(1596560211.996680) can0 528#0034F0BA00004000
(1596560211.998185) can0 529#0000000000001FFF
(1596560211.998186) can0 52A#0000000000001FFF
(1596560211.998186) can0 52B#0000000000001FFF
(1596560211.998187) can0 52C#0000000000001FFF
(1596560211.998536) can0 52D#FC60F96F00034002
(1596560211.998537) can0 52E#0482695200003FFD
(1596560211.998538) can0 52F#0000000000001FFF
(1596560211.998538) can0 530#0862510100007FFF
(1596560211.999970) can0 531#0000000000001FFF
(1596560211.999971) can0 532#0000000000001FFF
(1596560211.999972) can0 533#006328F50004C002
(1596560211.999973) can0 534#0000000000001FFF
(1596560212.000660) can0 535#007F794100048002
(1596560212.000661) can0 536#0000000000001FFF
(1596560212.000661) can0 537#047F9E5800048002
(1596560212.000662) can0 538#0000000000001FFF
(1596560212.002156) can0 539#F87CB24000007FFF
(1596560212.002157) can0 53A#0000000000001FFF
(1596560212.002157) can0 53B#0062B0610004C001
(1596560212.002158) can0 53C#0000000000001FFF
(1596560212.002583) can0 53D#0061708C00047FFF
(1596560212.002584) can0 53E#087388B300047FF9
(1596560212.002584) can0 53F#0000000000001FFF
(1596560212.002585) can0 540#10000A000A0A0A03
(1596560212.004095) can0 540#11000A0103000A01
(1596560212.004096) can0 540#12000A410003000A
(1596560212.004097) can0 540#13070A0A0A000A00
(1596560212.004097) can0 540#1411000000000509
(1596560212.004617) can0 540#1504000A0A40000A
(1596560212.004618) can0 540#160A0A0A00000A02
(1596560212.004618) can0 540#170A0A000A030A10
(1596560212.004619) can0 540#180A040A400A0001
(1596560212.005631) can0 540#190A0A0A0A0A0A0A
(1596560212.005632) can0 5D0#5904D90001008AF6
(1596560212.005633) can0 5D1#5908EA0002010BF7
(1596560212.005633) can0 5E4#83847577BF000058
(1596560212.006645) can0 5E5#8B80638000000000
(1596560212.006646) can0 5E6#0000000000000000
(1596560212.006646) can0 5E7#0000000000000000
(1596560212.006647) can0 5E8#1900000100AA0000
(1596560212.007646) can0 5E9#1EB300041A1C0204
(1596560212.007647) can0 5EA#007D7F7D807D7073
(1596560212.007647) can0 5EB#001314001A0C0000
(1596560212.007648) can0 5EC#0090011301130000
(1596560212.008666) can0 5ED#0000000000000000
(1596560212.008666) can0 5EE#0000000000000000
(1596560212.008667) can0 5EF#32020004040D3200
(1596560212.036539) can0 4E0#001FFF0F68000000
(1596560212.037212) can0 4E1#FC10003A0000034D
(1596560212.037213) can0 4E2#2C05011E23475900
(1596560212.037214) can0 4E3#0C3C003E003E003E
(1596560212.037214) can0 500#006A805F00044000
(1596560212.038230) can0 501#0000000000001FFF
(1596560212.038231) can0 502#0000000000001FFF
(1596560212.038231) can0 503#0000000000001FFF
(1596560212.039230) can0 504#0000000000001FFF
(1596560212.039231) can0 505#0000000000001FFF
(1596560212.039231) can0 506#0C96818700040002
(1596560212.039232) can0 507#0060D8C00000FFFD
(1596560212.040250) can0 508#0000000000001FFF
(1596560212.040251) can0 509#0000000000001FFF
(1596560212.040251) can0 50A#0477B18700004000
(1596560212.040252) can0 50B#18E0412800000001
(1596560212.041274) can0 50C#0000000000001FFF
(1596560212.041275) can0 50D#006530B600044001
(1596560212.041276) can0 50E#0000000000001FFF
(1596560212.041276) can0 50F#0000000000001FFF
(1596560212.042276) can0 510#0077395200044000
(1596560212.042277) can0 511#0480696C0006000E
(1596560212.042277) can0 512#0000000000001FFF
(1596560212.042278) can0 513#007EE2D50004BFFC
(1596560212.043321) can0 514#0000000000001FFF
(1596560212.043322) can0 515#007F72A700048002
(1596560212.043322) can0 516#0000000000001FFF
(1596560212.043323) can0 517#0000000000001FFF
(1596560212.044819) can0 518#003250AD00007FFF
(1596560212.044820) can0 519#0000000000001FFF
(1596560212.044830) can0 51A#0000000000001FFF
(1596560212.044830) can0 51B#0462C11600044000
(1596560212.044831) can0 51C#007D71E600048002
(1596560212.045437) can0 51D#F461816E00017FFD
(1596560212.045438) can0 51E#F47770F100047FFD
(1596560212.045439) can0 51F#007EF16D0004BFFF
(1596560212.045439) can0 520#0068587A00044002
(1596560212.046381) can0 521#047861C000044002
(1596560212.046382) can0 522#FC7DB20F00048000
(1596560212.046382) can0 523#006189A900048002
(1596560212.046383) can0 524#006060FC0004BFFE
(1596560212.047390) can0 525#0000000000001FFF
(1596560212.047391) can0 526#0000000000001FFF
(1596560212.047392) can0 527#FC60712700047FFD
(1596560212.047392) can0 528#0000000000001FFF
(1596560212.048402) can0 529#0000000000001FFF
(1596560212.048403) can0 52A#0000000000001FFF
(1596560212.048404) can0 52B#0000000000001FFF
(1596560212.048404) can0 52C#0000000000001FFF
(1596560212.049854) can0 52D#FC80F96F00030002
(1596560212.049855) can0 52E#0482695200003FFD
(1596560212.049855) can0 52F#0000000000001FFF
(1596560212.049856) can0 530#0862510200007FFF
(1596560212.050375) can0 531#0000000000001FFF
(1596560212.050376) can0 532#0000000000001FFF
(1596560212.050377) can0 533#006330F300044002
(1596560212.050377) can0 534#0000000000001FFF
(1596560212.051786) can0 535#007F794100048002
(1596560212.051787) can0 536#0000000000001FFF
(1596560212.051787) can0 537#047F9E5800048002
(1596560212.051788) can0 538#0000000000001FFF
(1596560212.053272) can0 539#F87CB24000007FFF
(1596560212.053273) can0 53A#0000000000001FFF
(1596560212.053274) can0 53B#0062B8610004C001
(1596560212.053275) can0 53C#0000000000001FFF
(1596560212.053425) can0 53D#0061708C00047FFE
(1596560212.053425) can0 53E#089378B300043FF9
(1596560212.053426) can0 53F#0000000000001FFF
(1596560212.053426) can0 540#00000A0A0A0A0A03
(1596560212.054481) can0 540#01000A0A03000A00
(1596560212.054482) can0 540#020A0A42000A000A
(1596560212.054482) can0 540#03070A0A070A0A01
(1596560212.054483) can0 540#0410010000000308
(1596560212.055887) can0 540#0504000A0A400A0A
(1596560212.055887) can0 540#060A0A0A00000A01
(1596560212.055888) can0 540#070A0A000A030A0F
(1596560212.055889) can0 540#080A040A400A0001
(1596560212.056504) can0 540#090A0A0A0A0A0A0A
(1596560212.056505) can0 5D0#5904D90001008BF6
(1596560212.056505) can0 5D1#5904C00000021AF6
(1596560212.056506) can0 5E4#84857577BF000058
(1596560212.057509) can0 5E5#8B81638000000000
(1596560212.057510) can0 5E6#0000000000000000
(1596560212.057510) can0 5E7#0000000000000000
(1596560212.057511) can0 5E8#1900000100A80000
(1596560212.058525) can0 5E9#1EB500041A1C0204
(1596560212.058526) can0 5EA#007D7F7D807D7073
(1596560212.058527) can0 5EB#001314001A0C0000
(1596560212.058527) can0 5EC#0090011301130000
(1596560212.059940) can0 5ED#0000000000000000
(1596560212.059941) can0 5EE#0000000000000000
(1596560212.059941) can0 5EF#32020004040D3200
(1596560212.085421) can0 4E0#401FFF0F69000000
(1596560212.086416) can0 4E1#FD10003A0000034D
(1596560212.086417) can0 4E2#2C05011E23475900
(1596560212.086418) can0 4E3#0D3C003E003E003E
(1596560212.086418) can0 500#008A805F00040000
(1596560212.087463) can0 501#0000000000001FFF
(1596560212.087464) can0 502#0000000000001FFF
(1596560212.087465) can0 503#0000000000001FFF
(1596560212.087465) can0 504#002044610000BFFF
(1596560212.088487) can0 505#0000000000001FFF
(1596560212.088488) can0 506#0876718600044002
(1596560212.088496) can0 507#F860D0BF0000FFFD
(1596560212.088497) can0 508#0000000000001FFF
(1596560212.089618) can0 509#0000000000001FFF
(1596560212.089619) can0 50A#0477A98700004000
(1596560212.089620) can0 50B#0000000000001FFF
(1596560212.089620) can0 50C#0000000000001FFF
(1596560212.090542) can0 50D#006530B600044001
(1596560212.090543) can0 50E#0000000000001FFF
(1596560212.090544) can0 50F#0000000000001FFF
(1596560212.090544) can0 510#0077395200044000
(1596560212.091989) can0 511#0480696C0006000F
(1596560212.091990) can0 512#0000000000001FFF
(1596560212.091991) can0 513#007EE2D50005BFFD
(1596560212.091992) can0 514#00209B1000008001
(1596560212.092631) can0 515#007F72A700048002
(1596560212.092632) can0 516#0000000000001FFF
(1596560212.092632) can0 517#0036498800004000
(1596560212.092633) can0 518#0000000000001FFF
(1596560212.094130) can0 519#0000000000001FFF
(1596560212.094131) can0 51A#0000000000001FFF
(1596560212.094132) can0 51B#0462C11600047FFF
(1596560212.094132) can0 51C#007D71E600048002
(1596560212.094562) can0 51D#F481816E00013FFD
(1596560212.094563) can0 51E#F87770EF00047FFD
(1596560212.094564) can0 51F#007EF16D0004BFFF
(1596560212.094564) can0 520#0068587A00044002
(1596560212.096771) can0 521#047859C000044002
(1596560212.096772) can0 522#007DB20F00048000
(1596560212.096772) can0 523#006181A900048002
(1596560212.096773) can0 524#006060FC0004BFFE
(1596560212.096780) can0 525#0000000000001FFF
(1596560212.096781) can0 526#0000000000001FFF
(1596560212.096781) can0 527#FC60812800047FFD
(1596560212.096782) can0 528#0000000000001FFF
(1596560212.098283) can0 529#0000000000001FFF
(1596560212.098284) can0 52A#0000000000001FFF
(1596560212.098284) can0 52B#0000000000001FFF
(1596560212.098285) can0 52C#0000000000001FFF
(1596560212.098610) can0 52D#FC61016F00034002
(1596560212.098611) can0 52E#0482695200003FFD
(1596560212.098612) can0 52F#0000000000001FFF
(1596560212.098612) can0 530#0862490300007FFF
(1596560212.099632) can0 531#0000000000001FFF
(1596560212.099633) can0 532#0000000000001FFF
(1596560212.099633) can0 533#006338F100044002
(1596560212.099634) can0 534#0020342300008001
(1596560212.100649) can0 535#007F794100048002
(1596560212.100650) can0 536#0000000000001FFF
(1596560212.100651) can0 537#047F9E5800048002
(1596560212.100651) can0 538#0000000000001FFF
(1596560212.101666) can0 539#F89CB24000003FFF
(1596560212.101667) can0 53A#0000000000001FFF
(1596560212.101668) can0 53B#0062B8610004C001
(1596560212.101668) can0 53C#0000000000001FFF
(1596560212.102666) can0 53D#0461788C00047FFE
(1596560212.102667) can0 53E#089378B300043FF9
(1596560212.102667) can0 53F#0000000000001FFF
(1596560212.102668) can0 540#10000A0A0A020A01
(1596560212.103668) can0 540#11000A0A010A0A01
(1596560212.103669) can0 540#120A0A41000A0001
(1596560212.103670) can0 540#13070A010A0A0A00
(1596560212.103670) can0 540#1411010000000508
(1596560212.104691) can0 540#1503000A0A400A0A
(1596560212.104692) can0 540#160A0A0A00000A00
(1596560212.104692) can0 540#170A0A0000030A10
(1596560212.104693) can0 540#180A040A400A0001
(1596560212.105711) can0 540#190A0A0A0A0A0A0A
(1596560212.105711) can0 5D0#5904DA0001008BF6
(1596560212.105712) can0 5D1#59091B0001010AF7
(1596560212.105712) can0 5E4#84847577C0000058
(1596560212.106712) can0 5E5#8B80638000000000
(1596560212.106712) can0 5E6#0000000000000000
(1596560212.106713) can0 5E7#0000000000000000
(1596560212.106721) can0 5E8#1900000100A80000
(1596560212.107732) can0 5E9#1EB700041A1C0204
(1596560212.107733) can0 5EA#007D7F7D807D7073
(1596560212.107734) can0 5EB#001314001A0C0000
(1596560212.107734) can0 5EC#0090011301130000
(1596560212.108731) can0 5ED#0000000000000000
(1596560212.108732) can0 5EE#0000000000000000
(1596560212.108733) can0 5EF#32020004040D3200
(1596560212.135384) can0 4E0#801FFF0F6A000000
(1596560212.136377) can0 4E1#FE10003A0000034D
(1596560212.136378) can0 4E2#2C05011E23475900
(1596560212.136378) can0 4E3#0E3C003E003E003E
(1596560212.136379) can0 500#008A805F00040000
(1596560212.137400) can0 501#0021E8CA00007FFE
(1596560212.137401) can0 502#0000000000001FFF
(1596560212.137401) can0 503#0000000000001FFF
(1596560212.137402) can0 504#08404C630000BFFF
(1596560212.138384) can0 505#0000000000001FFF
(1596560212.138385) can0 506#0896718600040002
(1596560212.138385) can0 507#F860D0BF0000FFFD
(1596560212.138386) can0 508#0000000000001FFF
(1596560212.140057) can0 509#0000000000001FFF
(1596560212.140058) can0 50A#0477A98700007FFF
(1596560212.140059) can0 50B#0000000000001FFF
(1596560212.140059) can0 50C#0000000000001FFF
(1596560212.140464) can0 50D#006530B600044001
(1596560212.140465) can0 50E#0000000000001FFF
(1596560212.140465) can0 50F#0000000000001FFF
(1596560212.140466) can0 510#FC77395200044000
(1596560212.141865) can0 511#0480696C00060010
(1596560212.141866) can0 512#0000000000001FFF
(1596560212.141866) can0 513#FC7EE2D50005BFFD
(1596560212.141867) can0 514#0000000000001FFF
(1596560212.142483) can0 515#007F72A700048002
(1596560212.142484) can0 516#0000000000001FFF
(1596560212.142484) can0 517#0000000000001FFF
(1596560212.142485) can0 518#0000000000001FFF
(1596560212.143900) can0 519#0000000000001FFF
(1596560212.143901) can0 51A#0000000000001FFF
(1596560212.143902) can0 51B#0462D91600047FFF
(1596560212.143902) can0 51C#007D71E600048002
(1596560212.144526) can0 51D#0061B16E0001FFFD
(1596560212.144527) can0 51E#F87780F000047FFD
(1596560212.144527) can0 51F#009EF16D00043FFF
(1596560212.144528) can0 520#0068607A00044002
(1596560212.145540) can0 521#047851C000044002
(1596560212.145541) can0 522#007DB20F00048000
(1596560212.145542) can0 523#006181A900048002
(1596560212.145542) can0 524#046068FC0004FFFE
(1596560212.146547) can0 525#0000000000001FFF
(1596560212.146548) can0 526#0000000000001FFF
(1596560212.146549) can0 527#F860712700047FFE
(1596560212.146549) can0 528#0000000000001FFF
(1596560212.148100) can0 529#0000000000001FFF
(1596560212.148101) can0 52A#0000000000001FFF
(1596560212.148102) can0 52B#0000000000001FFF
(1596560212.148103) can0 52C#0000000000001FFF
(1596560212.148560) can0 52D#FC81016F00030002
(1596560212.148561) can0 52E#0482695200003FFD
(1596560212.148561) can0 52F#0000000000001FFF
(1596560212.148562) can0 530#0882490300003FFF
(1596560212.149874) can0 531#0000000000001FFF
(1596560212.149875) can0 532#0000000000001FFF
(1596560212.149876) can0 533#006338F100044002
(1596560212.149876) can0 534#0000000000001FFF
(1596560212.150587) can0 535#007F79430004C002
(1596560212.150588) can0 536#0000000000001FFF
(1596560212.150589) can0 537#047F9E5800048002
(1596560212.150589) can0 538#0000000000001FFF
(1596560212.151614) can0 539#F89CB24000003FFF
(1596560212.151614) can0 53A#0000000000001FFF
(1596560212.151615) can0 53B#0062B8610004C001
(1596560212.151616) can0 53C#0000000000001FFF
(1596560212.152613) can0 53D#0061708C00047FFE
(1596560212.152613) can0 53E#F87310B300057FFA
(1596560212.152614) can0 53F#0000000000001FFF
(1596560212.152615) can0 540#0000000A0A050A01
(1596560212.153629) can0 540#01000A0A010A0A00
(1596560212.153629) can0 540#020A0A42000A000A
(1596560212.153630) can0 540#03060A0A0A0A0A00
(1596560212.153630) can0 540#0410030000000508
(1596560212.154765) can0 540#0505000A0A400A0A
(1596560212.154765) can0 540#060A0A0A00000A00
(1596560212.154765) can0 540#070A0A000A000A0C
(1596560212.154765) can0 540#080A040A400A0000
(1596560212.155644) can0 540#090A0A0A0A0A0A0A
(1596560212.155644) can0 5D0#5904DB0001008BF6
(1596560212.155645) can0 5D1#5904DB0001008BF6
(1596560212.155645) can0 5E4#83847577C0000058
(1596560212.156669) can0 5E5#8B81638000000000
(1596560212.156669) can0 5E6#0000000000000000
(1596560212.156669) can0 5E7#0000000000000000
(1596560212.156669) can0 5E8#1900000100A80000
(1596560212.157665) can0 5E9#1EB900041A1C0204
(1596560212.157665) can0 5EA#007D7F7D807D7073
(1596560212.157665) can0 5EB#001314001A0C0000
(1596560212.157666) can0 5EC#0090011301130000
(1596560212.158674) can0 5ED#0000000000000000
(1596560212.158674) can0 5EE#0000000000000000
(1596560212.158674) can0 5EF#32020004040D3200
(1596560212.185535) can0 4E0#C01FFF0F6B000000
(1596560212.186553) can0 4E1#FF10003A0000034D
(1596560212.186553) can0 4E2#2C05011E23475900
(1596560212.186553) can0 4E3#0F3C003E003E003E
(1596560212.186553) can0 500#006A685F00044000
(1596560212.187928) can0 501#0841D8DA00007FFE
(1596560212.187929) can0 502#0000000000001FFF
(1596560212.187929) can0 503#0000000000001FFF
(1596560212.187929) can0 504#004044660000BFFF
(1596560212.189292) can0 505#003C0A4100004001
(1596560212.189292) can0 506#F876418700044002
(1596560212.189292) can0 507#F860D0BF0000FFFD
(1596560212.189292) can0 508#0000000000001FFF
(1596560212.189622) can0 509#0000000000001FFF
(1596560212.189623) can0 50A#0077998700007FFF
(1596560212.189623) can0 50B#0000000000001FFF
(1596560212.189623) can0 50C#0000000000001FFF
(1596560212.191548) can0 50D#006530B500044001
(1596560212.191549) can0 50E#0000000000001FFF
(1596560212.191549) can0 50F#0000000000001FFF
(1596560212.191549) can0 510#FC77395200044000
(1596560212.191597) can0 511#0480696C00060010
(1596560212.191598) can0 512#0000000000001FFF
(1596560212.191598) can0 513#FC7EE2D50005BFFD
(1596560212.191598) can0 514#0000000000001FFF
(1596560212.192937) can0 515#007F72A700048002
(1596560212.192937) can0 516#0000000000001FFF
(1596560212.192937) can0 517#0000000000001FFF
(1596560212.192938) can0 518#0000000000001FFF
(1596560212.194315) can0 519#0000000000001FFF
(1596560212.194316) can0 51A#0000000000001FFF
(1596560212.194316) can0 51B#0462D91600047FFF
(1596560212.194316) can0 51C#007D71E600048002
(1596560212.195329) can0 51D#1061C16E0001BFFD
(1596560212.195329) can0 51E#F87780F100047FFD
(1596560212.195330) can0 51F#009EF16D00043FFF
(1596560212.195330) can0 520#0068607A00044002
(1596560212.196677) can0 521#047861C000044002
(1596560212.196677) can0 522#FC7DB20F00048000
(1596560212.196677) can0 523#006181A900048002
(1596560212.196677) can0 524#046068FB0004BFFF
(1596560212.196680) can0 525#003478B600004000
(1596560212.196680) can0 526#002CE85000007FFF
(1596560212.196681) can0 527#E860612700047FFE
(1596560212.196681) can0 528#0000000000001FFF
(1596560212.197723) can0 529#002440D000004000
(1596560212.197727) can0 52A#0000000000001FFF
(1596560212.197727) can0 52B#0000000000001FFF
(1596560212.197727) can0 52C#0000000000001FFF
(1596560212.198762) can0 52D#FC61296F00034002
(1596560212.198762) can0 52E#0482695200003FFD
(1596560212.198763) can0 52F#0000000000001FFF
(1596560212.198763) can0 530#046248FF00007FFF
(1596560212.199780) can0 531#0000000000001FFF
(1596560212.199781) can0 532#0000000000001FFF
(1596560212.199781) can0 533#008338F100040002
(1596560212.199781) can0 534#0000000000001FFF
(1596560212.200783) can0 535#007F794400048002
(1596560212.200783) can0 536#0000000000001FFF
(1596560212.200784) can0 537#047F9E5800048002
(1596560212.200784) can0 538#0000000000001FFF
(1596560212.202465) can0 539#F89CB24000003FFF
(1596560212.202466) can0 53A#0000000000001FFF
(1596560212.202466) can0 53B#0062B0610004C001
(1596560212.202466) can0 53C#0000000000001FFF
(1596560212.202763) can0 53D#0061708C00047FFE
(1596560212.202763) can0 53E#F89310B300053FFA
(1596560212.202764) can0 53F#0000000000001FFF
(1596560212.202764) can0 540#1000000A0A060500
(1596560212.203786) can0 540#11000A0A000A0A01
(1596560212.203786) can0 540#120A0A42000A000A
(1596560212.203787) can0 540#13070A0A0A0A0A00
(1596560212.203787) can0 540#1411010000000408
(1596560212.204791) can0 540#1506000000400A01
(1596560212.204791) can0 540#160A0A0A03000A00
(1596560212.204791) can0 540#170A0A000A030A0E
(1596560212.204792) can0 540#180A040A400A0000
(1596560212.206273) can0 540#190A0A0A0A0A0A0A
(1596560212.206273) can0 5D0#5904DC0001008AF6
(1596560212.206274) can0 5D1#59090D00010109F7
(1596560212.206274) can0 5E4#83847578BF000058
(1596560212.206832) can0 5E5#8A80638000000000
(1596560212.206832) can0 5E6#0000000000000000
(1596560212.206832) can0 5E7#0000000000000000
(1596560212.206833) can0 5E8#1900000100A70000
(1596560212.207843) can0 5E9#1EBB00041A1C0204
(1596560212.207843) can0 5EA#007D7F7D807D7073
(1596560212.207844) can0 5EB#001314001A0C0000
(1596560212.207844) can0 5EC#0090011301130000
(1596560212.208862) can0 5ED#0000000000000000
(1596560212.208863) can0 5EE#0000000000000000
(1596560212.208863) can0 5EF#32020004040D3200
(1596560212.236097) can0 4E0#001FFF0F6C000000
(1596560212.236499) can0 4E1#FC10003A0000034D
(1596560212.236499) can0 4E2#2C05011E23475900
(1596560212.236500) can0 4E3#0C3C003E003E003E
(1596560212.236500) can0 500#006A785F00044000
(1596560212.238312) can0 501#08E1D8DA00003FFE
(1596560212.238313) can0 502#0000000000001FFF
(1596560212.238314) can0 503#0000000000001FFF
(1596560212.238314) can0 504#F06044690000BFFF
(1596560212.238547) can0 505#0000000000001FFF
(1596560212.238548) can0 506#F896418700040002
(1596560212.238549) can0 507#F460D0C00000FFFD
(1596560212.238549) can0 508#0000000000001FFF
(1596560212.239990) can0 509#0000000000001FFF
(1596560212.239991) can0 50A#0097998700003FFF
(1596560212.239991) can0 50B#0000000000001FFF
(1596560212.239992) can0 50C#0000000000001FFF
(1596560212.240532) can0 50D#006528B500044001
(1596560212.240533) can0 50E#0000000000001FFF
(1596560212.240533) can0 50F#0000000000001FFF
(1596560212.240534) can0 510#FC77395200044000
(1596560212.241596) can0 511#0480696C00060011
(1596560212.241597) can0 512#0000000000001FFF
(1596560212.241598) can0 513#FC7EE2D50005BFFD
(1596560212.241598) can0 514#0000000000001FFF
(1596560212.242615) can0 515#007F72A700048002
(1596560212.242616) can0 516#0000000000001FFF
(1596560212.242623) can0 517#0000000000001FFF
(1596560212.242624) can0 518#0000000000001FFF
(1596560212.243618) can0 519#0000000000001FFF
(1596560212.243619) can0 51A#0020831100008007
(1596560212.243619) can0 51B#0462D91600047FFF
(1596560212.243620) can0 51C#007D71E600048002
(1596560212.244628) can0 51D#1461D16F0001FFFD
(1596560212.244629) can0 51E#FC7788EF00047FFD
(1596560212.244629) can0 51F#009EF16D00043FFF
(1596560212.244630) can0 520#0068687A00044002
(1596560212.245594) can0 521#047861BF00044002
(1596560212.245595) can0 522#007DB20F00048000
(1596560212.245596) can0 523#006181A900048002
(1596560212.245596) can0 524#086068FC0004FFFE
(1596560212.246616) can0 525#045498B700004000
(1596560212.246616) can0 526#0000000000001FFF
(1596560212.246617) can0 527#E880612700043FFE
(1596560212.246618) can0 528#0000000000001FFF
(1596560212.247613) can0 529#0000000000001FFF
(1596560212.247615) can0 52A#0000000000001FFF
(1596560212.247615) can0 52B#0000000000001FFF
(1596560212.247616) can0 52C#0000000000001FFF
(1596560212.248635) can0 52D#FC81296F00030002
(1596560212.248636) can0 52E#0482695200003FFD
(1596560212.248637) can0 52F#0000000000001FFF
(1596560212.248638) can0 530#048248FF00003FFF
(1596560212.249678) can0 531#0000000000001FFF
(1596560212.249679) can0 532#0000000000001FFF
(1596560212.249680) can0 533#006340EF00044002
(1596560212.249680) can0 534#0000000000001FFF
(1596560212.250694) can0 535#007F713D0004C001
(1596560212.250694) can0 536#0000000000001FFF
(1596560212.250695) can0 537#007F9E5800048002
(1596560212.250695) can0 538#0000000000001FFF
(1596560212.251657) can0 539#F07C7A4000007FFF
(1596560212.251658) can0 53A#0000000000001FFF
(1596560212.251659) can0 53B#0062B0610004C001
(1596560212.251660) can0 53C#0037218800004001
(1596560212.252721) can0 53D#0061708C00047FFF
(1596560212.252722) can0 53E#007338AF00057FFB
(1596560212.252723) can0 53F#0000000000001FFF
(1596560212.252723) can0 540#0000000A0A050A00
(1596560212.253721) can0 540#01000A0A000A0A01
(1596560212.253722) can0 540#020A0A42000A000A
(1596560212.253722) can0 540#03060A0A0A0A0000
(1596560212.253723) can0 540#0411030000000508
(1596560212.254749) can0 540#050600020A400A0A
(1596560212.254749) can0 540#060A0A0A03000A00
(1596560212.254750) can0 540#070A0A000A000A0E
(1596560212.254750) can0 540#080A030A40020002
(1596560212.255746) can0 540#090A0A0A0A0A0A0A
(1596560212.255746) can0 5D0#5904DE0001008AF6
(1596560212.255747) can0 5D1#5908C5FFF9FD71F8
(1596560212.255747) can0 5E4#83847577BF000058
(1596560212.256772) can0 5E5#8A81638000000000
(1596560212.256773) can0 5E6#0000000000000000
(1596560212.256773) can0 5E7#0000000000000000
(1596560212.256774) can0 5E8#1900000100A80000
(1596560212.257787) can0 5E9#1EBD00041A1C0204
(1596560212.257787) can0 5EA#007D7F7D807D7073
(1596560212.257788) can0 5EB#001314001A0C0000
(1596560212.257788) can0 5EC#0090011301130000
(1596560212.258786) can0 5ED#0000000000000000
(1596560212.258787) can0 5EE#0000000000000000
(1596560212.258787) can0 5EF#32020004040D3200
(1596560212.286554) can0 4E0#401FFF0F6D000000
(1596560212.287515) can0 4E1#FD10003A0000034D
(1596560212.287516) can0 4E2#2C05011E23475900
(1596560212.287517) can0 4E3#0D3C003E003E003E
(1596560212.287517) can0 500#006A906000044000
(1596560212.288977) can0 501#0000000000001FFF
(1596560212.288978) can0 502#0000000000001FFF
(1596560212.288978) can0 503#0000000000001FFF
(1596560212.288988) can0 504#F080446900003FFF
(1596560212.289574) can0 505#0000000000001FFF
(1596560212.289574) can0 506#F896418700040002
(1596560212.289575) can0 507#F860D8BF0000FFFD
(1596560212.289575) can0 508#0000000000001FFF
(1596560212.290588) can0 509#0000000000001FFF
(1596560212.290588) can0 50A#0077898700007FFF
(1596560212.290589) can0 50B#0000000000001FFF
(1596560212.290589) can0 50C#0000000000001FFF
(1596560212.291587) can0 50D#006520B400044001
(1596560212.291588) can0 50E#0000000000001FFF
(1596560212.291589) can0 50F#0000000000001FFF
(1596560212.291589) can0 510#FC77315200044000
(1596560212.292619) can0 511#0480696C00060012
(1596560212.292619) can0 512#0000000000001FFF
(1596560212.292620) can0 513#FC7EE2D50005BFFD
(1596560212.292620) can0 514#0000000000001FFF
(1596560212.293633) can0 515#007F72A700048002
(1596560212.293633) can0 516#0000000000001FFF
(1596560212.293634) can0 517#0000000000001FFF
(1596560212.293634) can0 518#0000000000001FFF
(1596560212.294626) can0 519#0000000000001FFF
(1596560212.294627) can0 51A#0040831103FF8005
(1596560212.294627) can0 51B#0462D91600047FFF
(1596560212.294628) can0 51C#007D71E600048002
(1596560212.295876) can0 51D#2C61D96F0001FFFD
(1596560212.295877) can0 51E#007788EE00047FFD
(1596560212.295877) can0 51F#009EF16D00043FFF
(1596560212.295878) can0 520#0068687A00044002
(1596560212.296646) can0 521#047861C000044002
(1596560212.296647) can0 522#007DB20F00048000
(1596560212.296647) can0 523#006181A900048002
(1596560212.296648) can0 524#086070FC0004FFFE
(1596560212.297721) can0 525#04F498B700000000
(1596560212.297722) can0 526#0000000000001FFF
(1596560212.297722) can0 527#E060392800047FFE
(1596560212.297723) can0 528#0000000000001FFF
(1596560212.298691) can0 529#0000000000001FFF
(1596560212.298692) can0 52A#0000000000001FFF
(1596560212.298693) can0 52B#0027208B00004000
(1596560212.298693) can0 52C#0000000000001FFF
(1596560212.299700) can0 52D#FC81296F00030002
(1596560212.299701) can0 52E#0482695200003FFD
(1596560212.299701) can0 52F#0000000000001FFF
(1596560212.299702) can0 530#048248FF00003FFF
(1596560212.301149) can0 531#0000000000001FFF
(1596560212.301150) can0 532#0000000000001FFF
(1596560212.301150) can0 533#006348EE00044002
(1596560212.301151) can0 534#0000000000001FFF
(1596560212.301741) can0 535#007F793F00048001
(1596560212.301741) can0 536#0000000000001FFF
(1596560212.301742) can0 537#007F9E5800048002
(1596560212.301742) can0 538#0000000000001FFF
(1596560212.302757) can0 539#F07C824000007FFF
(1596560212.302758) can0 53A#0000000000001FFF
(1596560212.302759) can0 53B#0062B0620004C001
(1596560212.302759) can0 53C#1057518700004002
(1596560212.303759) can0 53D#0461988D0004FFFF
(1596560212.303759) can0 53E#009338AF00053FFB
(1596560212.303760) can0 53F#0000000000001FFF
(1596560212.303760) can0 540#10000A0A0A050A00
(1596560212.305306) can0 540#11000A0A010A0A01
(1596560212.305307) can0 540#120A0A42000A000A
(1596560212.305308) can0 540#13070A0A0A0A0202
(1596560212.305308) can0 540#1411000000000408
(1596560212.305785) can0 540#150900020A400A0A
(1596560212.305786) can0 540#160A000A03000A00
(1596560212.305786) can0 540#170A0A000A030A10
(1596560212.305787) can0 540#180A030A40010002
(1596560212.307489) can0 540#190A0A0A0A0A0A0A
(1596560212.307490) can0 5D0#5904E000010089F6
(1596560212.307491) can0 5D1#59090300010106F7
(1596560212.307491) can0 5E4#83847577C0000058
(1596560212.307820) can0 5E5#8B80638000000000
(1596560212.307821) can0 5E6#0000000000000000
(1596560212.307821) can0 5E7#0000000000000000
(1596560212.307822) can0 5E8#1900000100AA0000
(1596560212.309329) can0 5E9#1EBF00041A1C0204
(1596560212.309330) can0 5EA#007D7F7D807D7073
(1596560212.309330) can0 5EB#001314001A0C0000
(1596560212.309331) can0 5EC#0090011301130000
(1596560212.309835) can0 5ED#0000000000000000
(1596560212.309836) can0 5EE#0000000000000000
(1596560212.309836) can0 5EF#32020004040D3200
(1596560212.336511) can0 4E0#801FFF0F6E000000
(1596560212.338032) can0 4E1#FE10003A0000034D
(1596560212.338032) can0 4E2#2C05011E23475900
(1596560212.338033) can0 4E3#0E3C00080008003E
(1596560212.338034) can0 500#008A906000040000
(1596560212.338224) can0 501#0000000000001FFF
(1596560212.338224) can0 502#0000000000001FFF
(1596560212.338225) can0 503#0000000000001FFF
(1596560212.338226) can0 504#F080446900003FFF
(1596560212.339588) can0 505#0000000000001FFF
(1596560212.339589) can0 506#F896418700040002
(1596560212.339590) can0 507#FC60D8BF0000FFFD
(1596560212.339591) can0 508#0000000000001FFF
(1596560212.340290) can0 509#0000000000001FFF
(1596560212.340290) can0 50A#0077998700004000
(1596560212.340291) can0 50B#0000000000001FFF
(1596560212.340292) can0 50C#0000000000001FFF
(1596560212.341294) can0 50D#006520B400044001
(1596560212.341295) can0 50E#0000000000001FFF
(1596560212.341296) can0 50F#0000000000001FFF
(1596560212.341296) can0 510#FC77315200044000
(1596560212.342299) can0 511#0480696D00060013
(1596560212.342300) can0 512#0000000000001FFF
(1596560212.342301) can0 513#FC7EE2D40005BFFD
(1596560212.342301) can0 514#0000000000001FFF
(1596560212.343796) can0 515#007F72A700048002
(1596560212.343797) can0 516#00202C2900008001
(1596560212.343798) can0 517#0000000000001FFF
(1596560212.343798) can0 518#0000000000001FFF
(1596560212.344319) can0 519#0000000000001FFF
(1596560212.344320) can0 51A#00E0831103FF0003
(1596560212.344321) can0 51B#0462D91700047FFF
(1596560212.344321) can0 51C#007D71E600048002
(1596560212.346502) can0 51D#2C81D96F00013FFD
(1596560212.346503) can0 51E#007790EE00047FFD
(1596560212.346503) can0 51F#007EF16D0004BFFF
(1596560212.346504) can0 520#0068687A00044002
(1596560212.346512) can0 521#047861BF00044002
(1596560212.346512) can0 522#FC7DB20F00048000
(1596560212.346513) can0 523#006181A900048002
(1596560212.346514) can0 524#086068FC0004BFFE
(1596560212.347362) can0 525#0000000000001FFF
(1596560212.347362) can0 526#0000000000001FFF
(1596560212.347363) can0 527#E080392800043FFE
(1596560212.347364) can0 528#0000000000001FFF
(1596560212.348490) can0 529#0000000000001FFF
(1596560212.348491) can0 52A#0000000000001FFF
(1596560212.348492) can0 52B#0000000000001FFF
(1596560212.348493) can0 52C#0000000000001FFF
(1596560212.350055) can0 52D#0061496F00034002
(1596560212.350056) can0 52E#0482695200003FFD
(1596560212.350057) can0 52F#003F9EC50000BFFF
(1596560212.350057) can0 530#0061D8FF00007FFF
(1596560212.350405) can0 531#0000000000001FFF
(1596560212.350406) can0 532#0000000000001FFF
(1596560212.350406) can0 533#006348EE00044002
(1596560212.350407) can0 534#0000000000001FFF
(1596560212.351908) can0 535#007F794000048001
(1596560212.351909) can0 536#0020BA620000BFFF
(1596560212.351910) can0 537#007F9E5800048002
(1596560212.351910) can0 538#0000000000001FFF
(1596560212.352446) can0 539#F09C824000003FFF
(1596560212.352455) can0 53A#0000000000001FFF
(1596560212.352455) can0 53B#0062B0620004C001
(1596560212.352456) can0 53C#10F7518700000002
(1596560212.353445) can0 53D#0461A08D0004FFFF
(1596560212.353445) can0 53E#047370B100057FFD
(1596560212.353446) can0 53F#0000000000001FFF
(1596560212.353447) can0 540#00000A0A0A050A00
(1596560212.354478) can0 540#01000A0A020A0A01
(1596560212.354479) can0 540#020A0A41000A000A
(1596560212.354479) can0 540#0306000A0A0A0202
(1596560212.354480) can0 540#0411000000000508
(1596560212.355481) can0 540#0509000A0A400A0A
(1596560212.355482) can0 540#060A0A0A00000900
(1596560212.355482) can0 540#070A0A000A030010
(1596560212.355483) can0 540#080A030A40010000
(1596560212.356480) can0 540#090A0A0A0A0A0A0A
(1596560212.356481) can0 5D0#5904E100010089F6
(1596560212.356481) can0 5D1#59090300010107F7
(1596560212.356482) can0 5E4#83847577BF000058
(1596560212.357505) can0 5E5#8A81638000000000
(1596560212.357506) can0 5E6#0000000000000000
(1596560212.357506) can0 5E7#0000000000000000
(1596560212.357507) can0 5E8#1900000100AA0000
(1596560212.358536) can0 5E9#1EC100041A1C0204
(1596560212.358537) can0 5EA#007D7F7D807D7073
(1596560212.358538) can0 5EB#001314001A0C0000
(1596560212.358538) can0 5EC#0090011301130000
(1596560212.359538) can0 5ED#0000000000000000
(1596560212.359539) can0 5EE#0000000000000000
(1596560212.359540) can0 5EF#32020004040D3200
(1596560212.386650) can0 4E0#C01FFF0F6F000000
(1596560212.387646) can0 4E1#FF10003A0000034D
(1596560212.387647) can0 4E2#2C05011E23475900
(1596560212.387648) can0 4E3#0F3C00080008003E
(1596560212.387648) can0 500#006A385F00044000
(1596560212.388704) can0 501#0000000000001FFF
(1596560212.388705) can0 502#0000000000001FFF
(1596560212.388706) can0 503#0000000000001FFF
(1596560212.388706) can0 504#F080446900003FFF
(1596560212.389732) can0 505#0000000000001FFF
(1596560212.389733) can0 506#F896418700040002
(1596560212.389733) can0 507#0460E0C20000BFFD
(1596560212.389734) can0 508#0000000000001FFF
(1596560212.391592) can0 509#0000000000001FFF
(1596560212.391593) can0 50A#0097998700000000
(1596560212.391594) can0 50B#0000000000001FFF
(1596560212.391595) can0 50C#0000000000001FFF
(1596560212.391708) can0 50D#006520B600044001
(1596560212.391709) can0 50E#0000000000001FFF
(1596560212.391710) can0 50F#0000000000001FFF
(1596560212.391710) can0 510#FC77295200044000
(1596560212.393142) can0 511#0480696D00060014
(1596560212.393143) can0 512#0000000000001FFF
(1596560212.393143) can0 513#FC7EE2D40005BFFD
(1596560212.393144) can0 514#0000000000001FFF
(1596560212.393790) can0 515#007F7AA700048002
(1596560212.393791) can0 516#0000000000001FFF
(1596560212.393792) can0 517#0000000000001FFF
(1596560212.393793) can0 518#0000000000001FFF
(1596560212.395051) can0 519#0000000000001FFF
(1596560212.395052) can0 51A#0440830D03FF8001
(1596560212.395052) can0 51B#0462C91900047FFF
(1596560212.395053) can0 51C#007D71E600048002
(1596560212.395886) can0 51D#2C81D96F00013FFD
(1596560212.395887) can0 51E#047790ED00047FFD
(1596560212.395888) can0 51F#009EF16D00043FFF
(1596560212.395889) can0 520#0068607A00044002
(1596560212.396820) can0 521#047869BF00044002
(1596560212.396821) can0 522#007DB20F00048000
(1596560212.396822) can0 523#006181A900048002
(1596560212.396823) can0 524#086068FC0004BFFE
(1596560212.397835) can0 525#0000000000001FFF
(1596560212.397836) can0 526#0000000000001FFF
(1596560212.397844) can0 527#E080392800043FFE
(1596560212.397845) can0 528#0000000000001FFF
(1596560212.399571) can0 529#0000000000001FFF
(1596560212.399572) can0 52A#0000000000001FFF
(1596560212.399573) can0 52B#0000000000001FFF
(1596560212.399574) can0 52C#0000000000001FFF
(1596560212.399856) can0 52D#0061396F00034002
(1596560212.399857) can0 52E#0482695200003FFD
(1596560212.399858) can0 52F#0000000000001FFF
(1596560212.399858) can0 530#0061D8FF00007FFF
(1596560212.401364) can0 531#0027C8B300007905
(1596560212.401365) can0 532#0022B0B300007905
(1596560212.401366) can0 533#006348ED00044002
(1596560212.401366) can0 534#0000000000001FFF
(1596560212.401857) can0 535#007F81420004C001
(1596560212.401858) can0 536#0000000000001FFF
(1596560212.401858) can0 537#007F9E5800048002
(1596560212.401859) can0 538#0000000000001FFF
(1596560212.403603) can0 539#F09C824000003FFF
(1596560212.403604) can0 53A#0000000000001FFF
(1596560212.403605) can0 53B#0062B0610004C001
(1596560212.403605) can0 53C#0000000000001FFF
(1596560212.403918) can0 53D#0461988D00047FFF
(1596560212.403919) can0 53E#049370B100053FFE
(1596560212.403920) can0 53F#0000000000001FFF
(1596560212.403921) can0 540#10000A0A0A050A00
(1596560212.404902) can0 540#11000A0A020A0A02
(1596560212.404903) can0 540#120A0A41000A000A
(1596560212.404903) can0 540#13070A0A0A0A0003
(1596560212.404904) can0 540#1411000000000508
(1596560212.405958) can0 540#1508000A0A400A0A
(1596560212.405959) can0 540#160A0A0A00000A00
(1596560212.405959) can0 540#170002000A000A0D
(1596560212.405960) can0 540#180A030A400A0000
(1596560212.406943) can0 540#190A0A0A0A0A0A0A
(1596560212.406943) can0 5D0#5904DE0001008AF6
(1596560212.406944) can0 5D1#59091700010106F8
(1596560212.406944) can0 5E4#82837577BF000058
(1596560212.408438) can0 5E5#8B80638000000000
(1596560212.408439) can0 5E6#0000000000000000
(1596560212.408440) can0 5E7#0000000000000000
(1596560212.408440) can0 5E8#1900000100A30000
(1596560212.408983) can0 5E9#1EC300041A1C0204
(1596560212.408984) can0 5EA#007D7F7D807D7073
(1596560212.408984) can0 5EB#001314001A0C0000
(1596560212.408985) can0 5EC#0090011301130000
(1596560212.410489) can0 5ED#0000000000000000
(1596560212.410490) can0 5EE#0000000000000000
(1596560212.410491) can0 5EF#32020004040D3200
(1596560212.435659) can0 4E0#001FFF0F70000000
(1596560212.437185) can0 4E1#FC10003A0000034D
(1596560212.437186) can0 4E2#2C05011E23475900
(1596560212.437187) can0 4E3#0C3C00080008003E
(1596560212.437188) can0 500#006A485E00044000
(1596560212.437483) can0 501#0000000000001FFF
(1596560212.437484) can0 502#0000000000001FFF
(1596560212.437485) can0 503#0000000000001FFF
(1596560212.438487) can0 504#F8604C690000BFFF
(1596560212.438488) can0 505#0000000000001FFF
(1596560212.438488) can0 506#F896418700040002
(1596560212.438489) can0 507#0C60E0C50000BFFD
(1596560212.438489) can0 508#0000000000001FFF
(1596560212.440010) can0 509#0000000000001FFF
(1596560212.440011) can0 50A#0097998700000000
(1596560212.440012) can0 50B#0000000000001FFF
(1596560212.440013) can0 50C#0000000000001FFF
(1596560212.440534) can0 50D#0064F8BC00044001
(1596560212.440535) can0 50E#0000000000001FFF
(1596560212.440535) can0 50F#0000000000001FFF
(1596560212.440536) can0 510#FC77215200044000
(1596560212.442077) can0 511#0480696D00060014
(1596560212.442078) can0 512#0000000000001FFF
(1596560212.442079) can0 513#FC7EDAD40005BFFD
(1596560212.442088) can0 514#0000000000001FFF
(1596560212.442544) can0 515#007F7AA700048002
(1596560212.442545) can0 516#0000000000001FFF
(1596560212.442545) can0 517#0000000000001FFF
(1596560212.442546) can0 518#0000000000001FFF
(1596560212.443647) can0 519#0000000000001FFF
(1596560212.443648) can0 51A#F460730A03FFBFFF
(1596560212.443649) can0 51B#0062B11B00047FFF
(1596560212.443650) can0 51C#007D71E600048002
(1596560212.445396) can0 51D#1C61C96F00017FFD
(1596560212.445397) can0 51E#0477A0ED00047FFD
(1596560212.445398) can0 51F#009EF16D00043FFF
(1596560212.445399) can0 520#FC68507A00044002
(1596560212.445553) can0 521#047861BF00044001
(1596560212.445554) can0 522#007DB20F00048000
(1596560212.445555) can0 523#006181A800048002
(1596560212.445555) can0 524#046060FB0004BFFE
(1596560212.446687) can0 525#0000000000001FFF
(1596560212.446688) can0 526#0000000000001FFF
(1596560212.446689) can0 527#E080392800043FFE
(1596560212.446690) can0 528#0000000000001FFF
(1596560212.448185) can0 529#0000000000001FFF
(1596560212.448186) can0 52A#0000000000001FFF
(1596560212.448187) can0 52B#0000000000001FFF
(1596560212.448188) can0 52C#0000000000001FFF
(1596560212.448607) can0 52D#0081396F00030002
(1596560212.448608) can0 52E#0482695200003FFD
(1596560212.448608) can0 52F#0000000000001FFF
(1596560212.448609) can0 530#FC61D8FF00007FFF
(1596560212.449634) can0 531#0000000000001FFF
(1596560212.449635) can0 532#0000000000001FFF
(1596560212.449636) can0 533#006348ED00044002
(1596560212.449637) can0 534#0000000000001FFF
(1596560212.450648) can0 535#007F814200048001
(1596560212.450649) can0 536#0000000000001FFF
(1596560212.450650) can0 537#047FA65800048002
(1596560212.450650) can0 538#0000000000001FFF
(1596560212.451669) can0 539#F87CA24000007FFF
(1596560212.451670) can0 53A#0000000000001FFF
(1596560212.451670) can0 53B#0062C0610004C001
(1596560212.451671) can0 53C#0000000000001FFF
(1596560212.452690) can0 53D#0461988D00047FFF
(1596560212.452691) can0 53E#049370B100053FFE
(1596560212.452691) can0 53F#0000000000001FFF
(1596560212.452692) can0 540#00000A0A0A040A00
(1596560212.454405) can0 540#01000A0A020A0A02
(1596560212.454406) can0 540#020A0A43000A000A
(1596560212.454407) can0 540#03060A0A0A0A0002
(1596560212.454408) can0 540#0411040000010608
(1596560212.454733) can0 540#0506000A0A400A0A
(1596560212.454733) can0 540#060A0A0A00000A00
(1596560212.454734) can0 540#070A0A000A030A0D
(1596560212.454735) can0 540#080A020A400A0000
(1596560212.456180) can0 540#090A0A0A0A0A0A0A
(1596560212.456181) can0 5D0#5904D90001008CF6
(1596560212.456182) can0 5D1#59096A000100FEF8
(1596560212.456182) can0 5E4#83847577BF000058
(1596560212.457665) can0 5E5#8A81638000000000
(1596560212.457666) can0 5E6#0000000000000000
(1596560212.457666) can0 5E7#0000000000000000
(1596560212.457667) can0 5E8#1900000100A40000
(1596560212.457718) can0 5E9#1EC500041A1C0204
(1596560212.457718) can0 5EA#007D7F7D807D7073
(1596560212.457719) can0 5EB#001314001A0C0000
(1596560212.457720) can0 5EC#0090011301130000
(1596560212.458778) can0 5ED#0000000000000000
(1596560212.458779) can0 5EE#0000000000000000
(1596560212.458779) can0 5EF#32020004040D3200
(1596560212.485531) can0 4E0#401FFF0F71000000
(1596560212.486464) can0 4E1#FD10003A0000034D
(1596560212.486464) can0 4E2#2C05011E23475900
(1596560212.486465) can0 4E3#0D3C00080008003E
(1596560212.486466) can0 500#008A485E00040000
(1596560212.487484) can0 501#0000000000001FFF
(1596560212.487485) can0 502#0000000000001FFF
(1596560212.487485) can0 503#0000000000001FFF
(1596560212.488540) can0 504#F06034690000BFFF
(1596560212.488541) can0 505#0000000000001FFF
(1596560212.488541) can0 506#F896418700040002
(1596560212.488542) can0 507#1060E0C60000BFFD
(1596560212.488543) can0 508#0000000000001FFF
(1596560212.489549) can0 509#0000000000001FFF
(1596560212.489550) can0 50A#0097998700000000
(1596560212.489551) can0 50B#0000000000001FFF
(1596560212.489551) can0 50C#0027088B00004000
(1596560212.490549) can0 50D#006500BA00044001
(1596560212.490550) can0 50E#0000000000001FFF
(1596560212.490551) can0 50F#0000000000001FFF
(1596560212.490551) can0 510#FC77215200044000
(1596560212.491572) can0 511#0480696D00060015
(1596560212.491572) can0 512#0000000000001FFF
(1596560212.491573) can0 513#FC7EDAD40005BFFD
(1596560212.491574) can0 514#0000000000001FFF
(1596560212.492573) can0 515#007F7AA700048002
(1596560212.492574) can0 516#0000000000001FFF
(1596560212.492574) can0 517#0000000000001FFF
(1596560212.492575) can0 518#0000000000001FFF
(1596560212.493609) can0 519#0000000000001FFF
(1596560212.493610) can0 51A#F460730603FFBFFE
(1596560212.493610) can0 51B#0082B11B00043FFF
(1596560212.493611) can0 51C#007D71E600048002
(1596560212.495302) can0 51D#0C61F16F0001FFFD
(1596560212.495303) can0 51E#047798EC00047FFD
(1596560212.495303) can0 51F#009EF16D00043FFF
(1596560212.495304) can0 520#FC68607A00044002
(1596560212.495609) can0 521#047861BF00044001
(1596560212.495609) can0 522#007DB20F00048000
(1596560212.495610) can0 523#006181A800048002
(1596560212.495611) can0 524#046060FB0004BFFE
(1596560212.497115) can0 525#0000000000001FFF
(1596560212.497116) can0 526#0000000000001FFF
(1596560212.497116) can0 527#E080392800043FFE
(1596560212.497117) can0 528#0000000000001FFF
(1596560212.497640) can0 529#0000000000001FFF
(1596560212.497640) can0 52A#0000000000001FFF
(1596560212.497641) can0 52B#0000000000001FFF
(1596560212.497642) can0 52C#0000000000001FFF
(1596560212.499493) can0 52D#0081396F00030002
(1596560212.499494) can0 52E#FC62415300007FFD
(1596560212.499495) can0 52F#0000000000001FFF
(1596560212.499495) can0 530#FC61D0FF00007FFF
(1596560212.499623) can0 531#0000000000001FFF
(1596560212.499624) can0 532#0000000000001FFF
(1596560212.499625) can0 533#006340EC00044002
(1596560212.499625) can0 534#0000000000001FFF
(1596560212.501069) can0 535#007F814200048001
(1596560212.501070) can0 536#0000000000001FFF
(1596560212.501070) can0 537#047FA65800048002
(1596560212.501071) can0 538#0000000000001FFF
(1596560212.502508) can0 539#F89CA24000003FFF
(1596560212.502509) can0 53A#0000000000001FFF
(1596560212.502510) can0 53B#0062C0610004C001
(1596560212.502510) can0 53C#0000000000001FFF
(1596560212.502645) can0 53D#0461908D00047FFF
(1596560212.502646) can0 53E#0873C0B200057FFF
(1596560212.502647) can0 53F#0000000000001FFF
(1596560212.502647) can0 540#10000A0A0A040A00
(1596560212.504060) can0 540#11000A0A020A0001
(1596560212.504061) can0 540#120A0A40000A000A
(1596560212.504062) can0 540#13060A0A0A0A0002
(1596560212.504062) can0 540#1411020000000408
(1596560212.505016) can0 540#1506000A0A400A0A
(1596560212.505017) can0 540#160A0A0A00020A01
(1596560212.505018) can0 540#170A0A000A030A0F
(1596560212.505019) can0 540#180A020A400A0000
(1596560212.506466) can0 540#190A0A0A0A0A0A0A
(1596560212.506476) can0 5D0#5904D70001008CF6
(1596560212.506477) can0 5D1#59095200010100F7
(1596560212.506477) can0 5E4#83847577C0000058
(1596560212.506772) can0 5E5#8B80638000000000
(1596560212.506773) can0 5E6#0000000000000000
(1596560212.506774) can0 5E7#0000000000000000
(1596560212.506774) can0 5E8#1900000100A40000
(1596560212.508255) can0 5E9#1EC700041A1C0204
(1596560212.508255) can0 5EA#007D7F7D807D7073
(1596560212.508256) can0 5EB#001314001A0C0000
(1596560212.508257) can0 5EC#0090011301130000
(1596560212.508776) can0 5ED#0000000000000000
(1596560212.508777) can0 5EE#0000000000000000
(1596560212.508778) can0 5EF#32020004040D3200
(1596560212.536506) can0 4E0#801FFF0F72000000
(1596560212.538046) can0 4E1#FE10003A0000034D
(1596560212.538046) can0 4E2#2C05011E23475900
(1596560212.538047) can0 4E3#0E3C00080008003E
(1596560212.538048) can0 500#008A485E00040000
(1596560212.538225) can0 501#0000000000001FFF
(1596560212.538226) can0 502#0000000000001FFF
(1596560212.538226) can0 503#0000000000001FFF
(1596560212.538227) can0 504#E06024690000BFFF
(1596560212.539278) can0 505#0000000000001FFF
(1596560212.539279) can0 506#F896418700040002
(1596560212.539280) can0 507#1060E0CA0000FFFD
(1596560212.539280) can0 508#0000000000001FFF
(1596560212.540407) can0 509#0000000000001FFF
(1596560212.540408) can0 50A#0097998700000000
(1596560212.540408) can0 50B#0000000000001FFF
(1596560212.540409) can0 50C#0000000000001FFF
(1596560212.541900) can0 50D#006500B900044001
(1596560212.541901) can0 50E#0000000000001FFF
(1596560212.541901) can0 50F#0020AA640000BFFF
(1596560212.541902) can0 510#FC77215200044000
(1596560212.542323) can0 511#0000000000001FFF
(1596560212.542324) can0 512#0000000000001FFF
(1596560212.542325) can0 513#F87EDAD40004BFFC
(1596560212.542326) can0 514#0000000000001FFF
(1596560212.544070) can0 515#007F7AA700048002
(1596560212.544071) can0 516#0000000000001FFF
(1596560212.544072) can0 517#0000000000001FFF
(1596560212.544072) can0 518#0000000000001FFF
(1596560212.544366) can0 519#0000000000001FFF
(1596560212.544367) can0 51A#F8607B0703FFBFFC
(1596560212.544368) can0 51B#0062C11A00047FFF
(1596560212.544368) can0 51C#007D71E600048002
(1596560212.545808) can0 51D#0861F16E0001FFFD
(1596560212.545809) can0 51E#049798EC00043FFD
(1596560212.545809) can0 51F#009EF16D00043FFF
(1596560212.545810) can0 520#FC68607A00044002
(1596560212.546383) can0 521#047861BF00044001
(1596560212.546384) can0 522#007DB20F00048000
(1596560212.546385) can0 523#006189A800048002
(1596560212.546385) can0 524#046060FC0004BFFE
(1596560212.547421) can0 525#0000000000001FFF
(1596560212.547422) can0 526#0000000000001FFF
(1596560212.547423) can0 527#E080392800043FFE
(1596560212.547423) can0 528#0000000000001FFF
(1596560212.548391) can0 529#0000000000001FFF
(1596560212.548392) can0 52A#003688C500004000
(1596560212.548392) can0 52B#0000000000001FFF
(1596560212.548393) can0 52C#0000000000001FFF
(1596560212.549388) can0 52D#0081396F00030002
(1596560212.549389) can0 52E#FC62615300007FFD
(1596560212.549390) can0 52F#0000000000001FFF
(1596560212.549390) can0 530#F861B10000007FFF
(1596560212.550400) can0 531#0000000000001FFF
(1596560212.550402) can0 532#0000000000001FFF
(1596560212.550403) can0 533#006338EC00044002
(1596560212.550403) can0 534#0000000000001FFF
(1596560212.551435) can0 535#047F914200048001
(1596560212.551436) can0 536#0000000000001FFF
(1596560212.551444) can0 537#047FA65800048002
(1596560212.551445) can0 538#0000000000001FFF
(1596560212.552458) can0 539#F89CA24000003FFF
(1596560212.552459) can0 53A#0021992400007FF8
(1596560212.552460) can0 53B#0062C0610004C001
(1596560212.552461) can0 53C#0000000000001FFF
(1596560212.553499) can0 53D#0061908D00047FFF
(1596560212.553500) can0 53E#0893C0B200050000
(1596560212.553501) can0 53F#0000000000001FFF
(1596560212.553501) can0 540#00000A0A0A010A00
(1596560212.554446) can0 540#01000A0A020A0A02
(1596560212.554447) can0 540#020A00430A0A000A
(1596560212.554448) can0 540#03060A0A0A0A0000
(1596560212.554449) can0 540#0411030000000508
(1596560212.555504) can0 540#0509000A0A400A0A
(1596560212.555504) can0 540#06010A0A00000A00
(1596560212.555505) can0 540#070A0A000A030A0F
(1596560212.555506) can0 540#080A0200400A0000
(1596560212.556482) can0 540#090A0A0A0A0A0A0A
(1596560212.556483) can0 5D0#5904D60001008CF6
(1596560212.556483) can0 5D1#59094300010100F8
(1596560212.556484) can0 5E4#83847577BF000058
(1596560212.558280) can0 5E5#8A81638000000000
(1596560212.558281) can0 5E6#0000000000000000
(1596560212.558281) can0 5E7#0000000000000000
(1596560212.558282) can0 5E8#1900000100A40000
(1596560212.558522) can0 5E9#1EC900041A1C0204
(1596560212.558523) can0 5EA#007D7F7D807D7073
(1596560212.558524) can0 5EB#001314001A0C0000
(1596560212.558524) can0 5EC#0090011301130000
(1596560212.560029) can0 5ED#0000000000000000
(1596560212.560030) can0 5EE#0000000000000000
(1596560212.560031) can0 5EF#32020004040D3200
(1596560212.586336) can0 4E0#C01FFF0F73000000
(1596560212.587339) can0 4E1#FF10003A0000034D
(1596560212.587340) can0 4E2#2C05011E23475900
(1596560212.587341) can0 4E3#0F3C00080008003E
(1596560212.587341) can0 500#006AD05E00044000
(1596560212.588383) can0 501#0000000000001FFF
(1596560212.588384) can0 502#0000000000001FFF
(1596560212.588385) can0 503#002058B600004000
(1596560212.588385) can0 504#E86024690000BFFF
(1596560212.590137) can0 505#0000000000001FFF
(1596560212.590137) can0 506#0876A98600044003
(1596560212.590138) can0 507#1060E8C90000FFFD
(1596560212.590139) can0 508#0000000000001FFF
(1596560212.590366) can0 509#0000000000001FFF
(1596560212.590367) can0 50A#0077718700004000
(1596560212.590368) can0 50B#0000000000001FFF
(1596560212.590369) can0 50C#0000000000001FFF
(1596560212.591386) can0 50D#006508B800044001
(1596560212.591387) can0 50E#0000000000001FFF
(1596560212.591388) can0 50F#FC40A2670000BFFF
(1596560212.591388) can0 510#FC77215200044000
(1596560212.592386) can0 511#0000000000001FFF
(1596560212.592387) can0 512#0000000000001FFF
(1596560212.592387) can0 513#F87EDAD40004BFFC
(1596560212.592388) can0 514#0000000000001FFF
(1596560212.593406) can0 515#007F7AA700048002
(1596560212.593406) can0 516#0000000000001FFF
(1596560212.593407) can0 517#0000000000001FFF
(1596560212.593408) can0 518#0000000000001FFF
(1596560212.594446) can0 519#0000000000001FFF
(1596560212.594447) can0 51A#F060730703FFBFFB
(1596560212.594448) can0 51B#0062B11800047FFF
(1596560212.594448) can0 51C#007D71E600048002
(1596560212.596650) can0 51D#0861F16E0001FFFD
(1596560212.596651) can0 51E#049798EC00043FFD
(1596560212.596652) can0 51F#009EF16D00043FFF
(1596560212.596652) can0 520#0068707A00044002
(1596560212.596659) can0 521#047861BF00044001
(1596560212.596660) can0 522#007DBA0F00048000
(1596560212.596661) can0 523#006189A800048002
(1596560212.596670) can0 524#046060FC0004BFFE
(1596560212.598236) can0 525#0000000000001FFF
(1596560212.598237) can0 526#0000000000001FFF
(1596560212.598238) can0 527#F060412800047FFE
(1596560212.598238) can0 528#0000000000001FFF
(1596560212.598463) can0 529#0000000000001FFF
(1596560212.598464) can0 52A#FC5668C600004001
(1596560212.598465) can0 52B#0000000000001FFF
(1596560212.598466) can0 52C#0000000000001FFF
(1596560212.599489) can0 52D#0081396F00030002
(1596560212.599490) can0 52E#F862595300007FFD
(1596560212.599490) can0 52F#0000000000001FFF
(1596560212.599491) can0 530#F461A90000007FFF
(1596560212.600509) can0 531#0000000000001FFF
(1596560212.600510) can0 532#0000000000001FFF
(1596560212.600511) can0 533#008338EC00040002
(1596560212.600511) can0 534#0000000000001FFF
(1596560212.601524) can0 535#047F914200048001
(1596560212.601525) can0 536#0000000000001FFF
(1596560212.601526) can0 537#007FA65800048002
(1596560212.601526) can0 538#0035B0D800007FFF
(1596560212.602525) can0 539#F89CA24000003FFF
(1596560212.602526) can0 53A#F841712600007FF8
(1596560212.602526) can0 53B#0062B8610004C001
(1596560212.602527) can0 53C#0000000000001FFF
(1596560212.603545) can0 53D#0061888D00047FFF
(1596560212.603546) can0 53E#0893C0B200050001
(1596560212.603546) can0 53F#00203C2700008001
(1596560212.603547) can0 540#10000A0A00060A00
(1596560212.604545) can0 540#11000A0A000A0A01
(1596560212.604546) can0 540#120A00420A0A000A
(1596560212.604546) can0 540#13060A0A0A0A0000
(1596560212.604547) can0 540#1411030000000408
(1596560212.605566) can0 540#1505000A0A400A0A
(1596560212.605567) can0 540#16000A0A00000A00
(1596560212.605567) can0 540#170A0A000A030A0E
(1596560212.605568) can0 540#18000200400A0000
(1596560212.606589) can0 540#1902020202020202
(1596560212.606589) can0 5D0#5904D60001008BF6
(1596560212.606590) can0 5D1#59093800010102F7
(1596560212.606590) can0 5E4#83847577BF000058
(1596560212.607586) can0 5E5#8A80638000000000
(1596560212.607587) can0 5E6#0000000000000000
(1596560212.607588) can0 5E7#0000000000000000
(1596560212.607588) can0 5E8#1900000100AB0000
(1596560212.608607) can0 5E9#1ECB00041A1C0204
(1596560212.608608) can0 5EA#007D7F7D807D7073
(1596560212.608608) can0 5EB#001314001A0C0000
(1596560212.608609) can0 5EC#0090011301130000
(1596560212.609607) can0 5ED#0000000000000000
(1596560212.609607) can0 5EE#0000000000000000
(1596560212.609608) can0 5EF#32020004040D3200
(1596560212.635504) can0 4E0#001FFF0F74000000
(1596560212.637257) can0 4E1#FC10003A0000034D
(1596560212.637258) can0 4E2#2C05011E23475900
(1596560212.637259) can0 4E3#0C3C00080008003E
(1596560212.637260) can0 500#006B105F00044000
(1596560212.637407) can0 501#0000000000001FFF
(1596560212.637408) can0 502#0000000000001FFF
(1596560212.637408) can0 503#0000000000001FFF
(1596560212.637409) can0 504#E860246A0000BFFF
(1596560212.638470) can0 505#0000000000001FFF
(1596560212.638471) can0 506#0896A98600040003
(1596560212.638472) can0 507#1060E0C40000FFFD
(1596560212.638472) can0 508#003FBEBE0000BFFE
(1596560212.639486) can0 509#0024088600006966
(1596560212.639487) can0 50A#0077718700004000
(1596560212.639487) can0 50B#0000000000001FFF
(1596560212.639488) can0 50C#0000000000001FFF
(1596560212.640486) can0 50D#006510B800044001
(1596560212.640487) can0 50E#0000000000001FFF
(1596560212.640487) can0 50F#FC40A2680000BFFF
(1596560212.640488) can0 510#FC77315300044000
(1596560212.641512) can0 511#0000000000001FFF
(1596560212.641512) can0 512#0000000000001FFF
(1596560212.641513) can0 513#F87ED2D40005BFFD
(1596560212.641514) can0 514#0000000000001FFF
(1596560212.642563) can0 515#007F7AA700048002
(1596560212.642564) can0 516#0000000000001FFF
(1596560212.642565) can0 517#0000000000001FFF
(1596560212.642565) can0 518#0000000000001FFF
(1596560212.643548) can0 519#0000000000001FFF
(1596560212.643549) can0 51A#F06073070000BFFB
(1596560212.643549) can0 51B#0062C10F00047FFF
(1596560212.643550) can0 51C#007D71E600048002
(1596560212.645300) can0 51D#0461F16E0001FFFD
(1596560212.645301) can0 51E#047770EF00047FFD
(1596560212.645301) can0 51F#009EF16D00043FFF
(1596560212.645302) can0 520#0068887A00044002
(1596560212.645597) can0 521#047851C000044001
(1596560212.645597) can0 522#007DB20F00048000
(1596560212.645598) can0 523#006189A800048002
(1596560212.645599) can0 524#006058FC0004BFFE
(1596560212.646596) can0 525#0000000000001FFF
(1596560212.646596) can0 526#0000000000001FFF
(1596560212.646597) can0 527#0460692800047FFE
(1596560212.646597) can0 528#0000000000001FFF
(1596560212.647605) can0 529#0000000000001FFF
(1596560212.647606) can0 52A#FCF668C600000001
(1596560212.647606) can0 52B#0000000000001FFF
(1596560212.647607) can0 52C#0022985D000061D5
(1596560212.649433) can0 52D#0081396F00030002
(1596560212.649434) can0 52E#F862595300007FFD
(1596560212.649434) can0 52F#0000000000001FFF
(1596560212.649435) can0 530#F461A90100007FFF
(1596560212.649674) can0 531#0000000000001FFF
(1596560212.649675) can0 532#0000000000001FFF
(1596560212.649675) can0 533#FC6338EA00044002
(1596560212.649676) can0 534#0000000000001FFF
(1596560212.650651) can0 535#047F994200048001
(1596560212.650652) can0 536#0000000000001FFF
(1596560212.650652) can0 537#007FA65800048002
(1596560212.650653) can0 538#0000000000001FFF
(1596560212.651764) can0 539#F89CA24000003FFF
(1596560212.651765) can0 53A#E841492700007FFC
(1596560212.651765) can0 53B#0062C05F0004C001
(1596560212.651766) can0 53C#0000000000001FFF
(1596560212.652700) can0 53D#0461A88E0004C000
(1596560212.652701) can0 53E#0893C0B200050002
(1596560212.652702) can0 53F#00403C2600008001
(1596560212.652702) can0 540#00000A0A0A000A00
(1596560212.654199) can0 540#01000800010A0A01
(1596560212.654200) can0 540#020A00410A0A000A
(1596560212.654201) can0 540#03060A0A0A0A0100
(1596560212.654201) can0 540#0411000000000508
(1596560212.654823) can0 540#0504000A0A400A0A
(1596560212.654824) can0 540#06000A0000010A00
(1596560212.654824) can0 540#070A0A000A040A0E
(1596560212.654825) can0 540#080A0200400A0000
(1596560212.656321) can0 540#0902020202020202
(1596560212.656322) can0 5D0#5904C50001008DF6
(1596560212.656322) can0 5D1#59092F00010103F7
(1596560212.656323) can0 5E4#84847577C0000058
(1596560212.656738) can0 5E5#8B81638000000000
(1596560212.656738) can0 5E6#0000000000000000
(1596560212.656739) can0 5E7#0000000000000000
(1596560212.656739) can0 5E8#1900000100AF0000
(1596560212.658180) can0 5E9#1ECD00041A1C0204
(1596560212.658181) can0 5EA#007D7F7D807D7073
(1596560212.658181) can0 5EB#001314001A0C0000
(1596560212.658182) can0 5EC#0090011301130000
(1596560212.659681) can0 5ED#0000000000000000
(1596560212.659682) can0 5EE#0000000000000000
(1596560212.659683) can0 5EF#32020004040D3200
(1596560212.685428) can0 4E0#401FFF0F75000000
(1596560212.686445) can0 4E1#FD10003A0000034D
(1596560212.686454) can0 4E2#2C05011E23475900
(1596560212.686455) can0 4E3#0D3C00080008003E
(1596560212.686455) can0 500#006B185F00044000
(1596560212.687939) can0 501#0000000000001FFF
(1596560212.687940) can0 502#0037B15500004000
(1596560212.687941) can0 503#0000000000001FFF
(1596560212.687941) can0 504#E880246A00003FFF
(1596560212.688474) can0 505#0000000000001FFF
(1596560212.688475) can0 506#0896A98600040003
(1596560212.688475) can0 507#0C60E8C10000FFFD
(1596560212.688476) can0 508#085FBEC00000BFFE
(1596560212.689486) can0 509#0000000000001FFF
(1596560212.689487) can0 50A#0077798700004000
(1596560212.689488) can0 50B#0000000000001FFF
(1596560212.689488) can0 50C#0000000000001FFF
(1596560212.690492) can0 50D#006518B700044001
(1596560212.690493) can0 50E#0000000000001FFF
(1596560212.690493) can0 50F#FCE0A26800003FFF
(1596560212.690494) can0 510#FC97315300040000
(1596560212.691942) can0 511#0000000000001FFF
(1596560212.691943) can0 512#0000000000001FFF
(1596560212.691944) can0 513#F87ED2D40005BFFD
(1596560212.691945) can0 514#0000000000001FFF
(1596560212.692586) can0 515#007F7AA700048002
(1596560212.692587) can0 516#0000000000001FFF
(1596560212.692588) can0 517#0000000000001FFF
(1596560212.692589) can0 518#0000000000001FFF
(1596560212.693526) can0 519#0027208E00004000
(1596560212.693527) can0 51A#FC607B070000BFFB
(1596560212.693527) can0 51B#FC62B90D00047FFF
(1596560212.693528) can0 51C#007D71E600048002
(1596560212.694660) can0 51D#0061E96E0001FFFD
(1596560212.694661) can0 51E#007760F100047FFD
(1596560212.694662) can0 51F#009EF16D00043FFF
(1596560212.694663) can0 520#0068807A00044001
(1596560212.696730) can0 521#007849C000044001
(1596560212.696731) can0 522#007DBA0F00048000
(1596560212.696732) can0 523#006189A800048002
(1596560212.696732) can0 524#006060FC0004BFFE
(1596560212.696739) can0 525#0000000000001FFF
(1596560212.696739) can0 526#0000000000001FFF
(1596560212.696740) can0 527#0480692800043FFE
(1596560212.696741) can0 528#0000000000001FFF
(1596560212.698258) can0 529#0000000000001FFF
(1596560212.698259) can0 52A#0000000000001FFF
(1596560212.698260) can0 52B#0000000000001FFF
(1596560212.698260) can0 52C#0000000000001FFF
(1596560212.698586) can0 52D#0081396F00030002
(1596560212.698586) can0 52E#F862595300007FFD
(1596560212.698587) can0 52F#0000000000001FFF
(1596560212.698587) can0 530#F481A90100003FFF
(1596560212.699776) can0 531#0000000000001FFF
(1596560212.699777) can0 532#0000000000001FFF
(1596560212.699777) can0 533#FC6328E900044002
(1596560212.699778) can0 534#0000000000001FFF
(1596560212.700636) can0 535#047FA14200048001
(1596560212.700637) can0 536#0000000000001FFF
(1596560212.700637) can0 537#007FA65800048002
(1596560212.700638) can0 538#0000000000001FFF
(1596560212.702193) can0 539#FC7CAA4000007FFF
(1596560212.702194) can0 53A#BC61392800007FFE
(1596560212.702194) can0 53B#0062C0600004C001
(1596560212.702195) can0 53C#0000000000001FFF
(1596560212.702649) can0 53D#0061B08E0004C000
(1596560212.702650) can0 53E#107418B300054002
(1596560212.702650) can0 53F#FC403C2400008001
(1596560212.702651) can0 540#10000A010A000A00
(1596560212.703656) can0 540#1100060A000A0A01
(1596560212.703657) can0 540#120A00410A0A000A
(1596560212.703658) can0 540#13060A0A0A000002
(1596560212.703658) can0 540#1411010000000509
(1596560212.704675) can0 540#1504000A0A400A0A
(1596560212.704676) can0 540#160A0A0A00000A00
(1596560212.704684) can0 540#170A0A000A030A0F
(1596560212.704685) can0 540#180A0300400A0000
(1596560212.705676) can0 540#1903030303030303
(1596560212.705677) can0 5D0#5904C70001008CF6
(1596560212.705677) can0 5D1#59092600010104F7
(1596560212.705678) can0 5E4#84847577C0000058
(1596560212.706704) can0 5E5#8B80638000000000
(1596560212.706705) can0 5E6#0000000000000000
(1596560212.706706) can0 5E7#0000000000000000
(1596560212.706706) can0 5E8#1900000100B00000
(1596560212.708351) can0 5E9#1ECF00041A1C0204
(1596560212.708352) can0 5EA#007D7F7D807D7073
(1596560212.708352) can0 5EB#001314001A0C0000
(1596560212.708353) can0 5EC#0090011301130000
(1596560212.708716) can0 5ED#0000000000000000
(1596560212.708716) can0 5EE#0000000000000000
(1596560212.708717) can0 5EF#32020004040D3200
(1596560212.736305) can0 4E0#801FFF0F76000000
(1596560212.737320) can0 4E1#FE10003A0000034D
(1596560212.737320) can0 4E2#2C05011E23475900
(1596560212.737321) can0 4E3#0E3C00080008003E
(1596560212.737322) can0 500#046B205F00044000
(1596560212.738342) can0 501#0000000000001FFF
(1596560212.738343) can0 502#E857996300007FFF
(1596560212.738344) can0 503#0000000000001FFF
(1596560212.738345) can0 504#E880246A00003FFF
(1596560212.739859) can0 505#0000000000001FFF
(1596560212.739860) can0 506#1076B18600044002
(1596560212.739861) can0 507#0860E0BF0000FFFD
(1596560212.739861) can0 508#105FBEC00000BFFE
(1596560212.740362) can0 509#0000000000001FFF
(1596560212.740363) can0 50A#0097798700000000
(1596560212.740363) can0 50B#0000000000001FFF
(1596560212.740364) can0 50C#0000000000001FFF
(1596560212.741816) can0 50D#006518B700044001
(1596560212.741817) can0 50E#003580CA00007FFE
(1596560212.741818) can0 50F#0000000000001FFF
(1596560212.741818) can0 510#FC77315300044000
(1596560212.742377) can0 511#0000000000001FFF
(1596560212.742378) can0 512#0038B97000004000
(1596560212.742379) can0 513#F87ECAD40005BFFD
(1596560212.742379) can0 514#0000000000001FFF
(1596560212.743403) can0 515#007F7AA700048002
(1596560212.743403) can0 516#0000000000001FFF
(1596560212.743404) can0 517#0000000000001FFF
(1596560212.743404) can0 518#0000000000001FFF
(1596560212.744421) can0 519#0000000000001FFF
(1596560212.744422) can0 51A#00607B070000BFFC
(1596560212.744422) can0 51B#FC62B10900047FFF
(1596560212.744423) can0 51C#007D71E600048002
(1596560212.745447) can0 51D#0461E96E0001FFFD
(1596560212.745447) can0 51E#FC7748F400047FFD
(1596560212.745448) can0 51F#009EF16D00043FFF
(1596560212.745448) can0 520#0068887A00044001
(1596560212.746449) can0 521#007849C000044001
(1596560212.746450) can0 522#007DBA0F00048000
(1596560212.746450) can0 523#006189A800048002
(1596560212.746451) can0 524#006058FC0004BFFE
(1596560212.747467) can0 525#0000000000001FFF
(1596560212.747467) can0 526#0000000000001FFF
(1596560212.747468) can0 527#0480692800043FFE
(1596560212.747469) can0 528#0036B98800007FF8
(1596560212.748487) can0 529#0000000000001FFF
(1596560212.748488) can0 52A#0000000000001FFF
(1596560212.748489) can0 52B#0000000000001FFF
(1596560212.748489) can0 52C#0000000000001FFF
(1596560212.749918) can0 52D#0081396F00030002
(1596560212.749919) can0 52E#F882595300003FFD
(1596560212.749920) can0 52F#0000000000001FFF
(1596560212.749920) can0 530#F481A90100003FFF
(1596560212.750589) can0 531#0000000000001FFF
(1596560212.750591) can0 532#0000000000001FFF
(1596560212.750591) can0 533#FC6328E900044002
(1596560212.750600) can0 534#0000000000001FFF
(1596560212.752110) can0 535#047FA14200048001
(1596560212.752111) can0 536#0000000000001FFF
(1596560212.752111) can0 537#007F9E5800048002
(1596560212.752112) can0 538#0000000000001FFF
(1596560212.752530) can0 539#007CAA4000007FFF
(1596560212.752531) can0 53A#B061192800007FFE
(1596560212.752531) can0 53B#0062C0600004C001
(1596560212.752532) can0 53C#0000000000001FFF
(1596560212.753957) can0 53D#0061A88E0004FFFF
(1596560212.753958) can0 53E#0873F0B400054003
(1596560212.753959) can0 53F#FC603C2300008000
(1596560212.753959) can0 540#00000A020A000A02
(1596560212.754625) can0 540#0100080A000A0A01
(1596560212.754626) can0 540#02000A430A00000A
(1596560212.754627) can0 540#03060A0A0A0A0002
(1596560212.754627) can0 540#0411000000000508
(1596560212.756149) can0 540#0504000A0A40020A
(1596560212.756150) can0 540#060A0A0A00000A00
(1596560212.756151) can0 540#070A0A000A030A0F
(1596560212.756151) can0 540#080A0300400A0001
(1596560212.756596) can0 540#0902020202020202
(1596560212.756596) can0 5D0#5904CA0001008CF6
(1596560212.756597) can0 5D1#5908FE0004FD97F7
(1596560212.756597) can0 5E4#83847577BF000058
(1596560212.758045) can0 5E5#8B81638000000000
(1596560212.758046) can0 5E6#0000000000000000
(1596560212.758047) can0 5E7#0000000000000000
(1596560212.758047) can0 5E8#1900000100B10000
(1596560212.758711) can0 5E9#1ED100041A1C0204
(1596560212.758712) can0 5EA#007D7F7D807D7073
(1596560212.758713) can0 5EB#001314001A0C0000
(1596560212.758713) can0 5EC#0090011301130000
(1596560212.760219) can0 5ED#0000000000000000
(1596560212.760220) can0 5EE#0000000000000000
(1596560212.760220) can0 5EF#32020004040D3200
(1596560212.786501) can0 4E0#C01FFF0F77000000
(1596560212.788018) can0 4E1#FF10003A0000034D
(1596560212.788019) can0 4E2#2C05011E23475900
(1596560212.788020) can0 4E3#0F3C00080008003E
(1596560212.788020) can0 500#046B305F00044000
(1596560212.788444) can0 501#0000000000001FFF
(1596560212.788445) can0 502#E8F7996300003FFF
(1596560212.788446) can0 503#0000000000001FFF
(1596560212.788446) can0 504#FC604C6A0000BFFF
(1596560212.789936) can0 505#0000000000001FFF
(1596560212.789937) can0 506#1096B18600040002
(1596560212.789937) can0 507#0860E8BF0000FFFD
(1596560212.789938) can0 508#10FFBEC000003FFE
(1596560212.790479) can0 509#0000000000001FFF
(1596560212.790480) can0 50A#0077898700004000
(1596560212.790480) can0 50B#0000000000001FFF
(1596560212.790481) can0 50C#0000000000001FFF
(1596560212.791981) can0 50D#006520B700044001
(1596560212.791982) can0 50E#0000000000001FFF
(1596560212.791982) can0 50F#0000000000001FFF
(1596560212.791983) can0 510#FC77315300044000
(1596560212.792512) can0 511#0000000000001FFF
(1596560212.792512) can0 512#0000000000001FFF
(1596560212.792513) can0 513#F87ED2D40005BFFD
(1596560212.792514) can0 514#0000000000001FFF
(1596560212.794006) can0 515#007F7AA700048002
(1596560212.794007) can0 516#0000000000001FFF
(1596560212.794008) can0 517#0000000000001FFF
(1596560212.794009) can0 518#0000000000001FFF
(1596560212.794559) can0 519#0000000000001FFF
(1596560212.794560) can0 51A#0C6083080000BFFD
(1596560212.794561) can0 51B#F862B10800047FFF
(1596560212.794561) can0 51C#007D71E600048002
(1596560212.796568) can0 51D#0461D96E0001FFFD
(1596560212.796569) can0 51E#FC9748F400043FFD
(1596560212.796569) can0 51F#009EF16D00043FFF
(1596560212.796570) can0 520#0068787A00044001
(1596560212.796586) can0 521#007849C000044001
(1596560212.796587) can0 522#007DBA0F00048000
(1596560212.796588) can0 523#006189A800048002
(1596560212.796588) can0 524#006058FC0004BFFE
(1596560212.797592) can0 525#0000000000001FFF
(1596560212.797593) can0 526#0000000000001FFF
(1596560212.797594) can0 527#0480692800043FFE
(1596560212.797594) can0 528#2457398600007FF8
(1596560212.798614) can0 529#0000000000001FFF
(1596560212.798615) can0 52A#0000000000001FFF
(1596560212.798615) can0 52B#0000000000001FFF
(1596560212.798616) can0 52C#0000000000001FFF
(1596560212.799613) can0 52D#0081396F00030002
(1596560212.799614) can0 52E#F882595300003FFD
(1596560212.799614) can0 52F#0000000000001FFF
(1596560212.799615) can0 530#F481A90100003FFF
(1596560212.800631) can0 531#0000000000001FFF
(1596560212.800631) can0 532#0000000000001FFF
(1596560212.800632) can0 533#FC6328EA00044002
(1596560212.800633) can0 534#0000000000001FFF
(1596560212.801634) can0 535#047FA1410004C001
(1596560212.801634) can0 536#0000000000001FFF
(1596560212.801635) can0 537#007FA65800048002
(1596560212.801636) can0 538#0000000000001FFF
(1596560212.802655) can0 539#F87C8A4000007FFF
(1596560212.802655) can0 53A#B461092800007FFE
(1596560212.802656) can0 53B#0062C05F0004C000
(1596560212.802657) can0 53C#0000000000001FFF
(1596560212.803650) can0 53D#0461B08E0004FFFF
(1596560212.803650) can0 53E#0073E8B400054003
(1596560212.803651) can0 53F#FC603C2300008000
(1596560212.803652) can0 540#10000A020A050A02
(1596560212.804673) can0 540#1100080A000A0A01
(1596560212.804673) can0 540#120A0A410A0A000A
(1596560212.804674) can0 540#13060A0A0A0A0101
(1596560212.804675) can0 540#1411000000000509
(1596560212.805685) can0 540#1504000A0A40000A
(1596560212.805686) can0 540#160A0A0A00000A00
(1596560212.805686) can0 540#170A0A000A000A10
(1596560212.805687) can0 540#180A0400400A0000
(1596560212.807577) can0 540#1902020202020202
(1596560212.807578) can0 5D0#5904BC0000008DF6
(1596560212.807578) can0 5D1#59092200010106F7
(1596560212.807579) can0 5E4#83847577BF000058
(1596560212.807645) can0 5E5#8B80638000000000
(1596560212.807646) can0 5E6#0000000000000000
(1596560212.807646) can0 5E7#0000000000000000
(1596560212.807647) can0 5E8#1900000100B10000
(1596560212.809101) can0 5E9#1ED300041A1C0204
(1596560212.809102) can0 5EA#007D7F7D807D7073
(1596560212.809103) can0 5EB#001314001A0C0000
(1596560212.809103) can0 5EC#0090011301130000
(1596560212.810505) can0 5ED#0000000000000000
(1596560212.810506) can0 5EE#0000000000000000
(1596560212.810506) can0 5EF#32020004040D3200
(1596560212.835505) can0 4E0#001FFF0F78000000
(1596560212.837049) can0 4E1#FC10003A0000034D
(1596560212.837050) can0 4E2#2C05011E23475900
(1596560212.837051) can0 4E3#0C3C00080008003E
(1596560212.837051) can0 500#046B285F00044000
(1596560212.837443) can0 501#0000000000001FFF
(1596560212.837444) can0 502#0000000000001FFF
(1596560212.837444) can0 503#0000000000001FFF
(1596560212.837445) can0 504#0060446A0000BFFF
(1596560212.838464) can0 505#0000000000001FFF
(1596560212.838465) can0 506#1096B18600040002
(1596560212.838466) can0 507#0860E0C10000BFFD
(1596560212.838466) can0 508#0000000000001FFF
(1596560212.839967) can0 509#0000000000001FFF
(1596560212.839968) can0 50A#0077898700004001
(1596560212.839968) can0 50B#0027088D00004008
(1596560212.839969) can0 50C#0000000000001FFF
(1596560212.840493) can0 50D#008520B700040001
(1596560212.840502) can0 50E#0000000000001FFF
(1596560212.840502) can0 50F#0000000000001FFF
(1596560212.840503) can0 510#FC77395300044000
(1596560212.841513) can0 511#0000000000001FFF
(1596560212.841514) can0 512#0000000000001FFF
(1596560212.841514) can0 513#F87ECAD40004BFFC
(1596560212.841515) can0 514#0035F0CA00007FFE
(1596560212.842528) can0 515#007F7AA700048002
(1596560212.842529) can0 516#0000000000001FFF
(1596560212.842529) can0 517#0000000000001FFF
(1596560212.842530) can0 518#0027088F00004000
(1596560212.843567) can0 519#0000000000001FFF
(1596560212.843568) can0 51A#10608B080000BFFD
(1596560212.843568) can0 51B#F862B10700047FFF
(1596560212.843569) can0 51C#007D71E600048002
(1596560212.844560) can0 51D#0461D96E0001FFFD
(1596560212.844561) can0 51E#FC9748F400043FFD
(1596560212.844562) can0 51F#009EF16D00043FFF
(1596560212.844562) can0 520#0068787A00044001
(1596560212.846494) can0 521#007849C000044001
(1596560212.846496) can0 522#007DB20F00048000
(1596560212.846496) can0 523#006189A800048002
(1596560212.846497) can0 524#006058FE0004FFFE
(1596560212.846551) can0 525#0000000000001FFF
(1596560212.846552) can0 526#0000000000001FFF
(1596560212.846552) can0 527#0860492800047FFE
(1596560212.846553) can0 528#24F7398600003FF8
(1596560212.848056) can0 529#0000000000001FFF
(1596560212.848057) can0 52A#0000000000001FFF
(1596560212.848057) can0 52B#0000000000001FFF
(1596560212.848058) can0 52C#0000000000001FFF
(1596560212.848703) can0 52D#0081396F00030002
(1596560212.848704) can0 52E#F882595300003FFD
(1596560212.848705) can0 52F#0000000000001FFF
(1596560212.848705) can0 530#F481A90100003FFF
(1596560212.850258) can0 531#0000000000001FFF
(1596560212.850259) can0 532#0000000000001FFF
(1596560212.850260) can0 533#FC8328EA00040002
(1596560212.850261) can0 534#0000000000001FFF
(1596560212.850630) can0 535#047FA1410004C001
(1596560212.850631) can0 536#0000000000001FFF
(1596560212.850631) can0 537#007FA65800048002
(1596560212.850632) can0 538#0000000000001FFF
(1596560212.852162) can0 539#007C9A4000007FFF
(1596560212.852163) can0 53A#B481092800003FFE
(1596560212.852164) can0 53B#0062C85F0004C000
(1596560212.852165) can0 53C#0000000000001FFF
(1596560212.852688) can0 53D#0461B08E0004FFFF
(1596560212.852689) can0 53E#0093E8B400050004
(1596560212.852689) can0 53F#FC60342400008000
(1596560212.852690) can0 540#00000A0A0A090A02
(1596560212.854200) can0 540#01000A0A01000A01
(1596560212.854201) can0 540#020A0A430A0A0000
(1596560212.854202) can0 540#03060A0A000A0002
(1596560212.854203) can0 540#0410010000000408
(1596560212.854682) can0 540#0503000A0A40000A
(1596560212.854683) can0 540#060A0A0A00000A00
(1596560212.854683) can0 540#070A0A000A000A0E
(1596560212.854684) can0 540#080A0400400A0000
(1596560212.856166) can0 540#0904040404040404
(1596560212.856167) can0 5D0#5904BD0000008EF6
(1596560212.856168) can0 5D1#5904BD0000008EF6
(1596560212.856168) can0 5E4#83847577BF000058
(1596560212.856800) can0 5E5#8A81638000000000
(1596560212.856801) can0 5E6#0000000000000000
(1596560212.856801) can0 5E7#0000000000000000
(1596560212.856802) can0 5E8#1900000100B10000
(1596560212.858365) can0 5E9#1ED500041A1C0204
(1596560212.858367) can0 5EA#007D7F7D807D7073
(1596560212.858367) can0 5EB#001314001A0C0000
(1596560212.858368) can0 5EC#0090011301130000
(1596560212.858734) can0 5ED#0000000000000000
(1596560212.858735) can0 5EE#0000000000000000
(1596560212.858744) can0 5EF#32020004040D3200
(1596560212.886609) can0 4E0#401FFF0F79000000
(1596560212.888121) can0 4E1#FD10003A0000034D
(1596560212.888122) can0 4E2#2C05011E23475900
(1596560212.888123) can0 4E3#0D3C00080008003E
(1596560212.888123) can0 500#048B285F00040000
(1596560212.888637) can0 501#0000000000001FFF
(1596560212.888638) can0 502#0000000000001FFF
(1596560212.888638) can0 503#0000000000001FFF
(1596560212.888639) can0 504#FC603C6A0000BFFF
(1596560212.890127) can0 505#0000000000001FFF
(1596560212.890128) can0 506#1096B18600040002
(1596560212.890129) can0 507#0860E8C30000BFFD
(1596560212.890129) can0 508#0000000000001FFF
(1596560212.890784) can0 509#0000000000001FFF
(1596560212.890785) can0 50A#0477A18700004001
(1596560212.890786) can0 50B#0000000000001FFF
(1596560212.890787) can0 50C#0000000000001FFF
(1596560212.891838) can0 50D#006518B700044001
(1596560212.891839) can0 50E#0000000000001FFF
(1596560212.891840) can0 50F#0000000000001FFF
(1596560212.891840) can0 510#FC77395300044000
(1596560212.892794) can0 511#0000000000001FFF
(1596560212.892795) can0 512#0000000000001FFF
(1596560212.892796) can0 513#F87ECAD40005BFFD
(1596560212.892797) can0 514#0000000000001FFF
(1596560212.893719) can0 515#007F7AA700048002
(1596560212.893720) can0 516#0000000000001FFF
(1596560212.893721) can0 517#0021112B00004000
(1596560212.893721) can0 518#0447208E00007FFF
(1596560212.895201) can0 519#0000000000001FFF
(1596560212.895201) can0 51A#10808B0800003FFD
(1596560212.895202) can0 51B#F862B10500047FFF
(1596560212.895203) can0 51C#007D71E600048002
(1596560212.895756) can0 51D#0461D96F0001FFFD
(1596560212.895757) can0 51E#FC9748F400043FFD
(1596560212.895758) can0 51F#009EF16D00043FFF
(1596560212.895758) can0 520#0068787900044001
(1596560212.896776) can0 521#007849C000044001
(1596560212.896777) can0 522#007DB20F00048000
(1596560212.896778) can0 523#006181A800048002
(1596560212.896778) can0 524#006058FE0004BFFE
(1596560212.897778) can0 525#0000000000001FFF
(1596560212.897779) can0 526#0000000000001FFF
(1596560212.897780) can0 527#0880492800043FFE
(1596560212.897780) can0 528#0000000000001FFF
(1596560212.899496) can0 529#0000000000001FFF
(1596560212.899497) can0 52A#0000000000001FFF
(1596560212.899497) can0 52B#0000000000001FFF
(1596560212.899498) can0 52C#0000000000001FFF
(1596560212.899818) can0 52D#0081396F00030002
(1596560212.899819) can0 52E#F882595300003FFD
(1596560212.899820) can0 52F#0000000000001FFF
(1596560212.899820) can0 530#F481A90100003FFF
(1596560212.900843) can0 531#0000000000001FFF
(1596560212.900844) can0 532#0000000000001FFF
(1596560212.900845) can0 533#FC8328EA00040002
(1596560212.900845) can0 534#003FB2FE00008001
(1596560212.901856) can0 535#047FA14100048001
(1596560212.901857) can0 536#0000000000001FFF
(1596560212.901857) can0 537#007F9E5800048002
(1596560212.901858) can0 538#0000000000001FFF
(1596560212.902859) can0 539#047C9A4000007FFF
(1596560212.902860) can0 53A#C461092800007FFD
(1596560212.902861) can0 53B#0462D05F0004C000
(1596560212.902861) can0 53C#0000000000001FFF
(1596560212.903872) can0 53D#0461B08F0004FFFF
(1596560212.903872) can0 53E#007400B500054004
(1596560212.903873) can0 53F#FC60342500008000
(1596560212.903874) can0 540#10000A0A0A090A02
(1596560212.905359) can0 540#11000A0A020A0A01
(1596560212.905360) can0 540#120A0A440A0A000A
(1596560212.905361) can0 540#13060A00000A0004
(1596560212.905370) can0 540#1411030000000608
(1596560212.905892) can0 540#1501000A0A400A0A
(1596560212.905893) can0 540#160A0A0A00000A00
(1596560212.905893) can0 540#170A0A0000030A10
(1596560212.905894) can0 540#180A0300400A0003
(1596560212.906906) can0 540#1904040404040404
(1596560212.906907) can0 5D0#5904BE00000090F6
(1596560212.906907) can0 5D1#5909130005FD99F9
(1596560212.906908) can0 5E4#83847578BF000058
(1596560212.907926) can0 5E5#8A80638000000000
(1596560212.907927) can0 5E6#0000000000000000
(1596560212.907928) can0 5E7#0000000000000000
(1596560212.907929) can0 5E8#1900000100B10000
(1596560212.909035) can0 5E9#1ED700041A1C0204
(1596560212.909036) can0 5EA#007D7F7D807D7073
(1596560212.909037) can0 5EB#001314001A0C0000
(1596560212.909038) can0 5EC#0090011301130000
(1596560212.909953) can0 5ED#0000000000000000
(1596560212.909954) can0 5EE#0000000000000000
(1596560212.909955) can0 5EF#32020004040D3200
(1596560212.936577) can0 4E0#801FFF0F7A000000
(1596560212.938126) can0 4E1#FE10003A0000034D
(1596560212.938127) can0 4E2#2C05011E23475900
(1596560212.938127) can0 4E3#0E3C00080008003E
(1596560212.938128) can0 500#048B285F00040000
(1596560212.938464) can0 501#0000000000001FFF
(1596560212.938464) can0 502#0000000000001FFF
(1596560212.938465) can0 503#0000000000001FFF
(1596560212.938466) can0 504#FC6034690000BFFF
(1596560212.939994) can0 505#0000000000001FFF
(1596560212.939995) can0 506#1096B18600040002
(1596560212.939996) can0 507#0860E0C50000BFFD
(1596560212.939996) can0 508#0000000000001FFF
(1596560212.940502) can0 509#0000000000001FFF
(1596560212.940503) can0 50A#0477A18700004001
(1596560212.940503) can0 50B#0000000000001FFF
(1596560212.940504) can0 50C#0000000000001FFF
(1596560212.941488) can0 50D#006520B700044001
(1596560212.941489) can0 50E#0000000000001FFF
(1596560212.941489) can0 50F#0000000000001FFF
(1596560212.941490) can0 510#FC77315300044000
(1596560212.942506) can0 511#0000000000001FFF
(1596560212.942507) can0 512#0000000000001FFF
(1596560212.942508) can0 513#F87ECAD30005BFFD
(1596560212.942508) can0 514#0000000000001FFF
(1596560212.944049) can0 515#007F7AA700048002
(1596560212.944050) can0 516#0000000000001FFF
(1596560212.944051) can0 517#0000000000001FFF
(1596560212.944051) can0 518#04E7208E00003FFF
(1596560212.944526) can0 519#0000000000001FFF
(1596560212.944526) can0 51A#0C6083080000BFFD
(1596560212.944527) can0 51B#F862B90400047FFF
(1596560212.944528) can0 51C#007D71E600048002
(1596560212.946497) can0 51D#0061D96F0001FFFD
(1596560212.946498) can0 51E#FC9748F400043FFD
(1596560212.946499) can0 51F#009EF16D00043FFF
(1596560212.946499) can0 520#0068907900044001
(1596560212.946506) can0 521#007839C000044001
(1596560212.946507) can0 522#007DB20F00048000
(1596560212.946508) can0 523#006181A800048002
(1596560212.946508) can0 524#006058FE0004BFFE
(1596560212.948067) can0 525#0000000000001FFF
(1596560212.948068) can0 526#0000000000001FFF
(1596560212.948069) can0 527#0880492800043FFE
(1596560212.948069) can0 528#0000000000001FFF
(1596560212.948606) can0 529#0000000000001FFF
(1596560212.948607) can0 52A#0000000000001FFF
(1596560212.948608) can0 52B#0000000000001FFF
(1596560212.948609) can0 52C#0000000000001FFF
(1596560212.950156) can0 52D#0081396F00030002
(1596560212.950157) can0 52E#F882595300003FFD
(1596560212.950158) can0 52F#0000000000001FFF
(1596560212.950159) can0 530#F481A90100003FFF
(1596560212.950610) can0 531#0000000000001FFF
(1596560212.950611) can0 532#0000000000001FFF
(1596560212.950612) can0 533#FC6350EA00044002
(1596560212.950612) can0 534#0000000000001FFF
