(1596560299.387496) can0 4E0#C01FFF163B000000
(1596560299.388932) can0 4E1#FF10003A0000034D
(1596560299.388933) can0 4E2#2C05011E23475900
(1596560299.388933) can0 4E3#0F12000000000000
(1596560299.388934) can0 500#E957115300007EA1
(1596560299.389526) can0 501#114B40E000007F2D
(1596560299.389527) can0 502#0000000000001FFF
(1596560299.389528) can0 503#0000000000001FFF
(1596560299.389529) can0 504#0000000000001FFF
(1596560299.390629) can0 505#0000000000001FFF
(1596560299.390630) can0 506#0000000000001FFF
(1596560299.390630) can0 507#0000000000001FFF
(1596560299.390631) can0 508#0000000000001FFF
(1596560299.391934) can0 509#255C08E300007E9E
(1596560299.391935) can0 50A#0000000000001FFF
(1596560299.391936) can0 50B#0000000000001FFF
(1596560299.391937) can0 50C#6D94617D00023EAB
(1596560299.393237) can0 50D#0000000000001FFF
(1596560299.393238) can0 50E#0000000000001FFF
(1596560299.393238) can0 50F#7D69A09B00017F0B
(1596560299.393240) can0 510#2165506603FE7ED8
(1596560299.393589) can0 511#217E18420000BE9F
(1596560299.393590) can0 512#F55BF0F900007E9D
(1596560299.393591) can0 513#0000000000001FFF
(1596560299.393592) can0 514#0000000000001FFF
(1596560299.394855) can0 515#0000000000001FFF
(1596560299.394856) can0 516#0000000000001FFF
(1596560299.394856) can0 517#0000000000001FFF
(1596560299.394857) can0 518#F157219503FF7EA4
(1596560299.395614) can0 519#0000000000001FFF
(1596560299.395615) can0 51A#0000000000001FFF
(1596560299.395615) can0 51B#0000000000001FFF
(1596560299.395616) can0 51C#0000000000001FFF
(1596560299.396638) can0 51D#0000000000001FFF
(1596560299.396639) can0 51E#0000000000001FFF
(1596560299.396640) can0 51F#0000000000001FFF
(1596560299.397634) can0 520#0000000000001FFF
(1596560299.397636) can0 521#0000000000001FFF
(1596560299.397637) can0 522#0000000000001FFF
(1596560299.397638) can0 523#596D292300007F4F
(1596560299.398675) can0 524#0000000000001FFF
(1596560299.398676) can0 525#E97798F400017E9F
(1596560299.398677) can0 526#FD58395903FF7E9E
(1596560299.398677) can0 527#1156D0AC00007EA2
(1596560299.398678) can0 528#0000000000001FFF
(1596560299.399656) can0 529#0000000000001FFF
(1596560299.399657) can0 52A#FD61304C03FF7EB6
(1596560299.399658) can0 52B#ED681889000D7EFB
(1596560299.399658) can0 52C#0000000000001FFF
(1596560299.400654) can0 52D#358DE8A9000A3F3E
(1596560299.400655) can0 52E#0000000000001FFF
(1596560299.400655) can0 52F#0000000000001FFF
(1596560299.400664) can0 530#7D79E0DA00007E9D
(1596560299.401716) can0 531#0000000000001FFF
(1596560299.401716) can0 532#0000000000001FFF
(1596560299.401717) can0 533#0000000000001FFF
(1596560299.401718) can0 534#0000000000001FFF
(1596560299.402741) can0 535#0000000000001FFF
(1596560299.402742) can0 536#0000000000001FFF
(1596560299.402743) can0 537#0000000000001FFF
(1596560299.402743) can0 538#0000000000001FFF
(1596560299.403811) can0 539#0000000000001FFF
(1596560299.403812) can0 53A#0000000000001FFF
(1596560299.403812) can0 53B#B1F5E96700003EA4
(1596560299.403812) can0 53C#0000000000001FFF
(1596560299.404885) can0 53D#0000000000001FFF
(1596560299.404885) can0 53E#0000000000001FFF
(1596560299.404885) can0 53F#0000000000001FFF
(1596560299.404886) can0 540#1020200A0A0A0A0A
(1596560299.405882) can0 540#110A0A290A0A610A
(1596560299.405882) can0 540#120A296060210A0A
(1596560299.405882) can0 540#130A0A0A220A0A0A
(1596560299.405882) can0 540#140A0A0A0A0A0A0A
(1596560299.407728) can0 540#15200A6022200A0A
(1596560299.407728) can0 540#1663600A600A0A64
(1596560299.407728) can0 540#170A0A0A0A0A0A0A
(1596560299.407728) can0 540#180A0A0A270A0A0A
(1596560299.407839) can0 540#190A0A0A0A0A0A0A
(1596560299.407840) can0 5D0#590351FE3CFF9EF6
(1596560299.407840) can0 5D1#5907BBFEC601EDFF
(1596560299.407840) can0 5E4#84847577C0000058
(1596560299.409082) can0 5E5#8B80638080000000
(1596560299.409083) can0 5E6#0000000000000000
(1596560299.409083) can0 5E7#0000000000000000
(1596560299.409083) can0 5E8#1900000101F90000
(1596560299.410313) can0 5E9#2C5B00041A1C0204
(1596560299.410313) can0 5EA#007D7F7D807D7073
(1596560299.410314) can0 5EB#001314001A0C0000
(1596560299.410314) can0 5EC#0090011301130000
(1596560299.410810) can0 5ED#0000000000000000
(1596560299.410811) can0 5EE#0000000000000000
(1596560299.410811) can0 5EF#32010004040C3200
(1596560299.437982) can0 4E0#001FFF163C000000
(1596560299.438914) can0 4E1#FC10003A0000034D
(1596560299.438914) can0 4E2#2C05011E23475900
(1596560299.438914) can0 4E3#0C12000000000000
(1596560299.438914) can0 500#D577115100007EA1
(1596560299.439959) can0 501#11EB50DF00003F2D
(1596560299.439960) can0 502#0000000000001FFF
(1596560299.439960) can0 503#0000000000001FFF
(1596560299.439960) can0 504#0000000000001FFF
(1596560299.440998) can0 505#0000000000001FFF
(1596560299.440998) can0 506#0000000000001FFF
(1596560299.440998) can0 507#0000000000001FFF
(1596560299.441993) can0 508#0000000000001FFF
(1596560299.441994) can0 509#595C98E300007E9F
(1596560299.441994) can0 50A#0000000000001FFF
(1596560299.441994) can0 50B#0000000000001FFF
(1596560299.441995) can0 50C#6D94517B00023EAB
(1596560299.442997) can0 50D#0000000000001FFF
(1596560299.442997) can0 50E#0000000000001FFF
(1596560299.442998) can0 50F#7D69E09D00067F11
(1596560299.442998) can0 510#FD65686003FE7ED7
(1596560299.444015) can0 511#219E084100003E9F
(1596560299.444016) can0 512#F5FBE8F700003E9D
(1596560299.444016) can0 513#0000000000001FFF
(1596560299.444016) can0 514#0000000000001FFF
(1596560299.444863) can0 515#0000000000001FFF
(1596560299.444863) can0 516#0000000000001FFF
(1596560299.444863) can0 517#0000000000001FFF
(1596560299.444864) can0 518#0000000000001FFF
(1596560299.445886) can0 519#0000000000001FFF
(1596560299.445886) can0 51A#0000000000001FFF
(1596560299.445887) can0 51B#0000000000001FFF
(1596560299.445887) can0 51C#0000000000001FFF
(1596560299.447000) can0 51D#0000000000001FFF
(1596560299.447000) can0 51E#0000000000001FFF
(1596560299.447001) can0 51F#0000000000001FFF
(1596560299.448019) can0 520#0027106A00007EF8
(1596560299.448020) can0 521#002838B100007F0A
(1596560299.448020) can0 522#003D88B100007EA3
(1596560299.448020) can0 523#598D392200003F4F
(1596560299.448021) can0 524#0000000000001FFF
(1596560299.449207) can0 525#AD77A90400017E9F
(1596560299.449208) can0 526#FDF8295703FF3E9D
(1596560299.449208) can0 527#A57640B400007EA1
(1596560299.449209) can0 528#0000000000001FFF
(1596560299.450201) can0 529#0000000000001FFF
(1596560299.450201) can0 52A#FD61604603FFFEB5
(1596560299.450202) can0 52B#E9683887000E7F00
(1596560299.450202) can0 52C#0000000000001FFF
(1596560299.451199) can0 52D#416E30B600097F3F
(1596560299.451200) can0 52E#0000000000001FFF
(1596560299.451200) can0 52F#0000000000001FFF
(1596560299.451201) can0 530#7D7A40E000007E9D
(1596560299.452222) can0 531#0000000000001FFF
(1596560299.452222) can0 532#0000000000001FFF
(1596560299.452223) can0 533#0000000000001FFF
(1596560299.452223) can0 534#0000000000001FFF
(1596560299.453245) can0 535#0000000000001FFF
(1596560299.453246) can0 536#0000000000001FFF
(1596560299.453246) can0 537#0000000000001FFF
(1596560299.453247) can0 538#0000000000001FFF
(1596560299.453995) can0 539#0000000000001FFF
(1596560299.453995) can0 53A#0000000000001FFF
(1596560299.453996) can0 53B#8976196400007EA7
(1596560299.453996) can0 53C#0000000000001FFF
(1596560299.455033) can0 53D#0000000000001FFF
(1596560299.455033) can0 53E#0000000000001FFF
(1596560299.455034) can0 53F#0000000000001FFF
(1596560299.455034) can0 540#0020200A0A0A0A0A
(1596560299.456052) can0 540#010A0A200A0A610A
(1596560299.456053) can0 540#020A256060210A0A
(1596560299.456054) can0 540#030A0A0A0A0A0A0A
(1596560299.456054) can0 540#040A0A0A0A000201
(1596560299.457053) can0 540#05200A6022200A0A
(1596560299.457053) can0 540#0661600A600A0A60
(1596560299.457054) can0 540#070A0A0A0A0A0A0A
(1596560299.457054) can0 540#080A0A0A200A0A0A
(1596560299.458345) can0 540#090A0A0A0A0A0A0A
(1596560299.458346) can0 5D0#590386FE580047F7
(1596560299.458346) can0 5D1#5907DAFECE01FAFB
(1596560299.458347) can0 5E4#84847577BF000058
(1596560299.459348) can0 5E5#8A80638080000000
(1596560299.459349) can0 5E6#0000000000000000
(1596560299.459350) can0 5E7#0000000000000000
(1596560299.459350) can0 5E8#1900000101FC0000
(1596560299.460340) can0 5E9#2C5D00041A1C0204
(1596560299.460341) can0 5EA#007D7F7D807D7073
(1596560299.460341) can0 5EB#001314001A0C0000
(1596560299.460342) can0 5EC#0090011301130000
(1596560299.461263) can0 5ED#0000000000000000
(1596560299.461264) can0 5EE#0000000000000000
(1596560299.461265) can0 5EF#32010004040C3200
(1596560299.487751) can0 4E0#401FFF163D000000
(1596560299.488779) can0 4E1#FD10003A0000034D
(1596560299.488780) can0 4E2#2C05011E23475900
(1596560299.488781) can0 4E3#0D12000000000000
(1596560299.488782) can0 500#DD77315200007EA1
(1596560299.489801) can0 501#0000000000001FFF
(1596560299.489802) can0 502#0000000000001FFF
(1596560299.489803) can0 503#0000000000001FFF
(1596560299.489803) can0 504#0000000000001FFF
(1596560299.490873) can0 505#0000000000001FFF
(1596560299.490874) can0 506#0000000000001FFF
(1596560299.490874) can0 507#0000000000001FFF
(1596560299.490875) can0 508#0000000000001FFF
(1596560299.491946) can0 509#7D7D50E403FFFEA0
(1596560299.491956) can0 50A#0000000000001FFF
(1596560299.491957) can0 50B#0000000000001FFF
(1596560299.491958) can0 50C#6D94397900023EAB
(1596560299.492944) can0 50D#0000000000001FFF
(1596560299.492945) can0 50E#0000000000001FFF
(1596560299.492945) can0 50F#7D6A209E00097F18
(1596560299.492946) can0 510#0165805F03FE7ED7
(1596560299.493967) can0 511#219E003F00003E9F
(1596560299.493968) can0 512#0000000000001FFF
(1596560299.493969) can0 513#003290CA00007EBB
(1596560299.493970) can0 514#0000000000001FFF
(1596560299.494965) can0 515#0000000000001FFF
(1596560299.494966) can0 516#0000000000001FFF
(1596560299.494967) can0 517#0000000000001FFF
(1596560299.494967) can0 518#0000000000001FFF
(1596560299.495729) can0 519#0000000000001FFF
(1596560299.495730) can0 51A#0000000000001FFF
(1596560299.495731) can0 51B#0000000000001FFF
(1596560299.495731) can0 51C#0000000000001FFF
(1596560299.497045) can0 51D#0000000000001FFF
(1596560299.497046) can0 51E#0000000000001FFF
(1596560299.497047) can0 51F#0000000000001FFF
(1596560299.497048) can0 520#5949E07100017F03
(1596560299.498027) can0 521#014850AF00007F0B
(1596560299.498028) can0 522#055D68B00000FEA3
(1596560299.498029) can0 523#598D412200003F4F
(1596560299.498029) can0 524#0000000000001FFF
(1596560299.499057) can0 525#AD97990200013E9F
(1596560299.499059) can0 526#95B7C16600007E9D
(1596560299.499059) can0 527#A59620B200003EA1
(1596560299.499060) can0 528#0000000000001FFF
(1596560299.500048) can0 529#0000000000001FFF
(1596560299.500049) can0 52A#F961A84203FFFEB5
(1596560299.500050) can0 52B#E1686083000F7F04
(1596560299.500051) can0 52C#0000000000001FFF
(1596560299.501071) can0 52D#418E48B500093F41
(1596560299.501072) can0 52E#0000000000001FFF
(1596560299.501072) can0 52F#0000000000001FFF
(1596560299.501073) can0 530#7D7A60DD00007E9D
(1596560299.501808) can0 531#0000000000001FFF
(1596560299.501809) can0 532#0000000000001FFF
(1596560299.501810) can0 533#0000000000001FFF
(1596560299.501811) can0 534#0000000000001FFF
(1596560299.502799) can0 535#0037E10900004C95
(1596560299.502800) can0 536#0000000000001FFF
(1596560299.502801) can0 537#0000000000001FFF
(1596560299.502802) can0 538#0000000000001FFF
(1596560299.503826) can0 539#0000000000001FFF
(1596560299.503827) can0 53A#0000000000001FFF
(1596560299.503828) can0 53B#8996096200003EA7
(1596560299.503828) can0 53C#0000000000001FFF
(1596560299.504884) can0 53D#0000000000001FFF
(1596560299.504884) can0 53E#0000000000001FFF
(1596560299.504885) can0 53F#0000000000001FFF
(1596560299.504886) can0 540#10280A0A0A0A0A0A
(1596560299.505906) can0 540#110A0A250A0A610A
(1596560299.505907) can0 540#120A6B63600A020A
(1596560299.505907) can0 540#130A0A0A0A0A0A0A
(1596560299.505908) can0 540#140A0A0A0A202320
(1596560299.507831) can0 540#15200A6028200A0A
(1596560299.507832) can0 540#1660600A600A0A6B
(1596560299.507832) can0 540#170A0A0A0A000A0A
(1596560299.507833) can0 540#180A0A0A200A0A0A
(1596560299.507878) can0 540#190A0A0A0A0A0A0A
(1596560299.507879) can0 5D0#590B65FE3EFF77FB
(1596560299.507880) can0 5D1#5907EAFED7020701
(1596560299.507880) can0 5E4#84847577BF000057
(1596560299.509413) can0 5E5#8A80638080000000
(1596560299.509414) can0 5E6#0000000000000000
(1596560299.509415) can0 5E7#0000000000000000
(1596560299.509415) can0 5E8#1900000100020000
(1596560299.509945) can0 5E9#2C5F00041A1C0204
(1596560299.509946) can0 5EA#007D7F7D807D7073
(1596560299.509954) can0 5EB#001314001A0C0000
(1596560299.509955) can0 5EC#0090011301130000
(1596560299.511501) can0 5ED#0000000000000000
(1596560299.511502) can0 5EE#0000000000000000
(1596560299.511503) can0 5EF#32010104040C3200
(1596560299.538016) can0 4E0#801FFF163E000000
(1596560299.539536) can0 4E1#FE10003A0000034D
(1596560299.539537) can0 4E2#2C05011E23475900
(1596560299.539538) can0 4E3#0E12000000000000
(1596560299.539538) can0 500#C177596100007EA1
(1596560299.539683) can0 501#0000000000001FFF
(1596560299.539684) can0 502#0000000000001FFF
(1596560299.539685) can0 503#0028B87100007005
(1596560299.539685) can0 504#0000000000001FFF
(1596560299.541133) can0 505#0000000000001FFF
(1596560299.541134) can0 506#0000000000001FFF
(1596560299.541135) can0 507#0000000000001FFF
(1596560299.541135) can0 508#0000000000001FFF
(1596560299.542451) can0 509#0000000000001FFF
(1596560299.542452) can0 50A#0000000000001FFF
(1596560299.542452) can0 50B#0000000000001FFF
(1596560299.542453) can0 50C#0000000000001FFF
(1596560299.542755) can0 50D#0000000000001FFF
(1596560299.542756) can0 50E#0000000000001FFF
(1596560299.542756) can0 50F#7D6A00A6000A7F1B
(1596560299.542757) can0 510#0965B85E03FF7ED8
(1596560299.544274) can0 511#1960F83D0001FEA8
(1596560299.544275) can0 512#0000000000001FFF
(1596560299.544276) can0 513#0000000000001FFF
(1596560299.544276) can0 514#0000000000001FFF
(1596560299.544793) can0 515#0000000000001FFF
(1596560299.544794) can0 516#0000000000001FFF
(1596560299.544794) can0 517#0000000000001FFF
(1596560299.544795) can0 518#0000000000001FFF
(1596560299.546375) can0 519#0000000000001FFF
(1596560299.546376) can0 51A#0000000000001FFF
(1596560299.546377) can0 51B#003D48EB00007EA3
(1596560299.546378) can0 51C#0000000000001FFF
(1596560299.546947) can0 51D#0000000000001FFF
(1596560299.546948) can0 51E#0000000000001FFF
(1596560299.546948) can0 51F#0000000000001FFF
(1596560299.546949) can0 520#59EA007000013F03
(1596560299.548679) can0 521#FD4860AB00007F0B
(1596560299.548680) can0 522#157D28AF0000FEA2
(1596560299.548681) can0 523#598D512100003F4F
(1596560299.548682) can0 524#0000000000001FFF
(1596560299.548844) can0 525#D578110100007E9E
(1596560299.548845) can0 526#0000000000001FFF
(1596560299.548846) can0 527#A59600B000003EA1
(1596560299.548847) can0 528#0000000000001FFF
(1596560299.550176) can0 529#0000000000001FFF
(1596560299.550177) can0 52A#F9A1C03E03FF7EB4
(1596560299.550178) can0 52B#E168888000107F08
(1596560299.550178) can0 52C#0000000000001FFF
(1596560299.551492) can0 52D#418E68B400093F42
(1596560299.551493) can0 52E#0000000000001FFF
(1596560299.551494) can0 52F#0000000000001FFF
(1596560299.551495) can0 530#7D9A58DC00003E9D
(1596560299.552785) can0 531#0000000000001FFF
(1596560299.552785) can0 532#0000000000001FFF
(1596560299.552786) can0 533#0000000000001FFF
(1596560299.552787) can0 534#0000000000001FFF
(1596560299.552857) can0 535#0000000000001FFF
(1596560299.552858) can0 536#0000000000001FFF
(1596560299.552858) can0 537#0000000000001FFF
(1596560299.552859) can0 538#0000000000001FFF
(1596560299.554157) can0 539#0000000000001FFF
(1596560299.554158) can0 53A#0000000000001FFF
(1596560299.554159) can0 53B#9976016000007EA6
(1596560299.554160) can0 53C#0000000000001FFF
(1596560299.555477) can0 53D#0000000000001FFF
(1596560299.555478) can0 53E#0000000000001FFF
(1596560299.555479) can0 53F#0000000000001FFF
(1596560299.555489) can0 540#00620A0A000A0A0A
(1596560299.556794) can0 540#010A0A0A0A0A0A0A
(1596560299.556795) can0 540#020A6C60600A0A0A
(1596560299.556796) can0 540#030A0A0A0A0A0A02
(1596560299.556796) can0 540#040A0A0A0A202727
(1596560299.556991) can0 540#05200A600A200A0A
(1596560299.556992) can0 540#0660600A600A0A6B
(1596560299.556993) can0 540#070A0A0A0A0A0A0A
(1596560299.556994) can0 540#080A0A0A220A0A0A
(1596560299.558272) can0 540#090A0A0A0A0A0A0A
(1596560299.558273) can0 5D0#5908BEFE40FF6FFD
(1596560299.558274) can0 5D1#590851FEDB020002
(1596560299.558275) can0 5E4#83847577C0000058
(1596560299.559876) can0 5E5#8B80638080000000
(1596560299.559877) can0 5E6#0000000000000000
(1596560299.559877) can0 5E7#0000000000000000
(1596560299.559878) can0 5E8#1900000101FF0000
(1596560299.560034) can0 5E9#2C6100041A1C0204
(1596560299.560035) can0 5EA#007D7F7D807D7073
(1596560299.560035) can0 5EB#001314001A0C0000
(1596560299.560036) can0 5EC#0090011301130000
(1596560299.561024) can0 5ED#0000000000000000
(1596560299.561025) can0 5EE#0000000000000000
(1596560299.561025) can0 5EF#32010004040C3200
(1596560299.587620) can0 4E0#C01FFF163F000000
(1596560299.588924) can0 4E1#FF10003A0000034D
(1596560299.588925) can0 4E2#2C05011E23475900
(1596560299.588926) can0 4E3#0F12000000000000
(1596560299.588927) can0 500#9977717000007EA1
(1596560299.589633) can0 501#0000000000001FFF
(1596560299.589634) can0 502#0000000000001FFF
(1596560299.589634) can0 503#0000000000001FFF
(1596560299.589635) can0 504#0000000000001FFF
(1596560299.590910) can0 505#0000000000001FFF
(1596560299.590910) can0 506#0038298A00007EA0
(1596560299.590911) can0 507#0000000000001FFF
(1596560299.590912) can0 508#0000000000001FFF
(1596560299.592458) can0 509#0000000000001FFF
(1596560299.592459) can0 50A#0000000000001FFF
(1596560299.592459) can0 50B#0000000000001FFF
(1596560299.592460) can0 50C#0000000000001FFF
(1596560299.592731) can0 50D#0000000000001FFF
(1596560299.592732) can0 50E#0000000000001FFF
(1596560299.592733) can0 50F#7D6A08AC000B7F20
(1596560299.592734) can0 510#F965D05A03FF7ED8
(1596560299.593943) can0 511#197F803B0001FEAA
(1596560299.593944) can0 512#0000000000001FFF
(1596560299.593945) can0 513#0000000000001FFF
(1596560299.593945) can0 514#0000000000001FFF
(1596560299.594776) can0 515#0000000000001FFF
(1596560299.594777) can0 516#0000000000001FFF
(1596560299.594778) can0 517#0000000000001FFF
(1596560299.594778) can0 518#0000000000001FFF
(1596560299.596312) can0 519#0000000000001FFF
(1596560299.596313) can0 51A#0000000000001FFF
(1596560299.596314) can0 51B#0000000000001FFF
(1596560299.596315) can0 51C#0000000000001FFF
(1596560299.597002) can0 51D#0000000000001FFF
(1596560299.597003) can0 51E#0000000000001FFF
(1596560299.597003) can0 51F#0000000000001FFF
(1596560299.597004) can0 520#3949506C00017F04
(1596560299.598775) can0 521#FDE870AA00003F0B
(1596560299.598776) can0 522#257D50AD0000FEA2
(1596560299.598777) can0 523#0000000000001FFF
(1596560299.598777) can0 524#0000000000001FFF
(1596560299.598796) can0 525#D59800FF00003E9E
(1596560299.598796) can0 526#0000000000001FFF
(1596560299.598797) can0 527#A595E0AE00003EA1
(1596560299.598797) can0 528#0000000000001FFF
(1596560299.600364) can0 529#0000000000001FFF
(1596560299.600365) can0 52A#0000000000001FFF
(1596560299.600365) can0 52B#1968608900117F0D
(1596560299.600366) can0 52C#0000000000001FFF
(1596560299.601068) can0 52D#418E80B300093F44
(1596560299.601069) can0 52E#0000000000001FFF
(1596560299.601070) can0 52F#0000000000001FFF
(1596560299.601070) can0 530#7D9A48DA00003E9D
(1596560299.602619) can0 531#003939BB00007E9D
(1596560299.602620) can0 532#0000000000001FFF
(1596560299.602621) can0 533#0000000000001FFF
(1596560299.602622) can0 534#0000000000001FFF
(1596560299.602905) can0 535#0000000000001FFF
(1596560299.602906) can0 536#0000000000001FFF
(1596560299.602906) can0 537#0000000000001FFF
(1596560299.602907) can0 538#0000000000001FFF
(1596560299.604427) can0 539#0000000000001FFF
(1596560299.604428) can0 53A#0000000000001FFF
(1596560299.604429) can0 53B#A175E15F00007EA6
(1596560299.604429) can0 53C#0000000000001FFF
(1596560299.605117) can0 53D#0000000000001FFF
(1596560299.605118) can0 53E#0000000000001FFF
(1596560299.605118) can0 53F#002B308B00004D27
(1596560299.605119) can0 540#10620A0A0A0A0A0A
(1596560299.606665) can0 540#110A0A0A0A0A0A0A
(1596560299.606666) can0 540#120A6360600A0A0A
(1596560299.606667) can0 540#130A0A0A0A0A0A0A
(1596560299.606668) can0 540#140A0A0A0A222768
(1596560299.606965) can0 540#150A0A600A200A0A
(1596560299.606966) can0 540#160A670A600A0A6B
(1596560299.606967) can0 540#17030A0A0A0A0A0A
(1596560299.606967) can0 540#180A0A0A650A0A0A
(1596560299.608485) can0 540#1900000000000000
(1596560299.608486) can0 5D0#5908A6FE40FF77FE
(1596560299.608487) can0 5D1#5908A6FE40FF77FE
(1596560299.608487) can0 5E4#83847577BF000058
(1596560299.608988) can0 5E5#8B80638080000000
(1596560299.608989) can0 5E6#0000000000000000
(1596560299.608990) can0 5E7#0000000000000000
(1596560299.608990) can0 5E8#1900000101FA0000
(1596560299.610997) can0 5E9#2C6300041A1C0204
(1596560299.610999) can0 5EA#007D7F7D807D7073
(1596560299.610999) can0 5EB#001314001A0C0000
(1596560299.611000) can0 5EC#0090011301130000
(1596560299.611008) can0 5ED#0000000000000000
(1596560299.611008) can0 5EE#0000000000000000
(1596560299.611009) can0 5EF#32010004040C3200
(1596560299.638099) can0 4E0#001FFF1640000000
(1596560299.638527) can0 4E1#FC10003A0000034D
(1596560299.638528) can0 4E2#2C05011E23475900
(1596560299.638529) can0 4E3#0C12000000000000
(1596560299.638530) can0 500#AD77917400007EA1
(1596560299.639866) can0 501#0000000000001FFF
(1596560299.639866) can0 502#0000000000001FFF
(1596560299.639867) can0 503#0000000000001FFF
(1596560299.639868) can0 504#0000000000001FFF
(1596560299.641418) can0 505#0000000000001FFF
(1596560299.641419) can0 506#0000000000001FFF
(1596560299.641419) can0 507#0000000000001FFF
(1596560299.641420) can0 508#0000000000001FFF
(1596560299.641561) can0 509#0000000000001FFF
(1596560299.641562) can0 50A#0000000000001FFF
(1596560299.641563) can0 50B#0000000000001FFF
(1596560299.641564) can0 50C#0000000000001FFF
(1596560299.642521) can0 50D#0000000000001FFF
(1596560299.642522) can0 50E#0000000000001FFF
(1596560299.642523) can0 50F#7D69D0A9000B7F1A
(1596560299.642524) can0 510#E566185203FF7ED8
(1596560299.644066) can0 511#397FC8390002FEAF
(1596560299.644067) can0 512#0000000000001FFF
(1596560299.644067) can0 513#0000000000001FFF
(1596560299.644068) can0 514#002B10BD00007F34
(1596560299.644780) can0 515#0000000000001FFF
(1596560299.644781) can0 516#0000000000001FFF
(1596560299.644781) can0 517#0000000000001FFF
(1596560299.644782) can0 518#0000000000001FFF
(1596560299.646332) can0 519#0000000000001FFF
(1596560299.646343) can0 51A#0000000000001FFF
(1596560299.646344) can0 51B#0000000000001FFF
(1596560299.646344) can0 51C#0000000000001FFF
(1596560299.646662) can0 51D#0000000000001FFF
(1596560299.646663) can0 51E#0000000000001FFF
(1596560299.646664) can0 51F#0000000000001FFF
(1596560299.646665) can0 520#4D68E06800017F04
(1596560299.648685) can0 521#51A960AE00017F14
(1596560299.648686) can0 522#117D78AD0000FEA3
(1596560299.648687) can0 523#0000000000001FFF
(1596560299.648688) can0 524#0000000000001FFF
(1596560299.648695) can0 525#8977391300007E9E
(1596560299.648695) can0 526#0000000000001FFF
(1596560299.648696) can0 527#0000000000001FFF
(1596560299.648697) can0 528#0000000000001FFF
(1596560299.650016) can0 529#0000000000001FFF
(1596560299.650017) can0 52A#0000000000001FFF
(1596560299.650017) can0 52B#2568C08600137F14
(1596560299.650018) can0 52C#0000000000001FFF
(1596560299.651687) can0 52D#0000000000001FFF
(1596560299.651688) can0 52E#0000000000001FFF
(1596560299.651689) can0 52F#0000000000001FFF
(1596560299.651689) can0 530#7D9A40D800003E9D
(1596560299.651696) can0 531#095951BA00007E9D
(1596560299.651697) can0 532#0000000000001FFF
(1596560299.651698) can0 533#0000000000001FFF
(1596560299.651698) can0 534#0000000000001FFF
(1596560299.653270) can0 535#0000000000001FFF
(1596560299.653271) can0 536#0000000000001FFF
(1596560299.653272) can0 537#0000000000001FFF
(1596560299.653273) can0 538#003E78AB00007EA6
(1596560299.653956) can0 539#0000000000001FFF
(1596560299.653957) can0 53A#0000000000001FFF
(1596560299.653957) can0 53B#B175C95C00007EA7
(1596560299.653958) can0 53C#0000000000001FFF
(1596560299.655507) can0 53D#0000000000001FFF
(1596560299.655508) can0 53E#0000000000001FFF
(1596560299.655509) can0 53F#0000000000001FFF
(1596560299.655509) can0 540#00680A0A0A0A0A0A
(1596560299.655797) can0 540#010A0A0A0A0A0A0A
(1596560299.655798) can0 540#020A6A60600A0A0A
(1596560299.655798) can0 540#030A0A0A0A0A0A0A
(1596560299.655799) can0 540#040A0A0A0A202A6D
(1596560299.657078) can0 540#050A0A600A0A0A0A
(1596560299.657079) can0 540#060A600A0A0A0A6B
(1596560299.657080) can0 540#07200A0A0A0A0A0A
(1596560299.657080) can0 540#08040A0A600A0A0A
(1596560299.658454) can0 540#090A0A0A0A0A0A0A
(1596560299.658455) can0 5D0#5908A6FE41FF7F03
(1596560299.658456) can0 5D1#5908A6FE41FF7F03
(1596560299.658456) can0 5E4#83847577C0000058
(1596560299.659763) can0 5E5#8A80638080000000
(1596560299.659764) can0 5E6#0000000000000000
(1596560299.659765) can0 5E7#0000000000000000
(1596560299.659765) can0 5E8#1900000101F60000
(1596560299.659810) can0 5E9#2C6500041A1C0204
(1596560299.659811) can0 5EA#007D7F7D807D7073
(1596560299.659811) can0 5EB#001314001A0C0000
(1596560299.659812) can0 5EC#0090011301130000
(1596560299.661109) can0 5ED#0000000000000000
(1596560299.661110) can0 5EE#0000000000000000
(1596560299.661110) can0 5EF#32010004040C3200
(1596560299.687186) can0 4E0#401FFF1641000000
(1596560299.687841) can0 4E1#FD10003A0000034D
(1596560299.687842) can0 4E2#2C05011E23475900
(1596560299.687843) can0 4E3#0D12000000000000
(1596560299.687843) can0 500#B577596D00007EA2
(1596560299.689372) can0 501#0000000000001FFF
(1596560299.689373) can0 502#0039C93400007E9D
(1596560299.689374) can0 503#0000000000001FFF
(1596560299.689375) can0 504#0000000000001FFF
(1596560299.689703) can0 505#0000000000001FFF
(1596560299.689704) can0 506#0000000000001FFF
(1596560299.689714) can0 507#0000000000001FFF
(1596560299.689715) can0 508#0000000000001FFF
(1596560299.691260) can0 509#0000000000001FFF
(1596560299.691261) can0 50A#0000000000001FFF
(1596560299.691262) can0 50B#0000000000001FFF
(1596560299.691263) can0 50C#0000000000001FFF
(1596560299.692563) can0 50D#0000000000001FFF
(1596560299.692564) can0 50E#0000000000001FFF
(1596560299.692565) can0 50F#7D6A60A5000E7F23
(1596560299.692565) can0 510#D166304C03FF7ED6
(1596560299.692764) can0 511#3D7FF03700037EB4
(1596560299.692765) can0 512#0000000000001FFF
(1596560299.692766) can0 513#0000000000001FFF
(1596560299.692766) can0 514#0000000000001FFF
(1596560299.694028) can0 515#0000000000001FFF
(1596560299.694029) can0 516#0036B0C700007EA3
(1596560299.694029) can0 517#0000000000001FFF
(1596560299.694030) can0 518#0000000000001FFF
(1596560299.695692) can0 519#0028C86400004D11
(1596560299.695693) can0 51A#0000000000001FFF
(1596560299.695694) can0 51B#0000000000001FFF
(1596560299.695694) can0 51C#0000000000001FFF
(1596560299.695841) can0 51D#0000000000001FFF
(1596560299.695842) can0 51E#0000000000001FFF
(1596560299.695843) can0 51F#0000000000001FFF
(1596560299.695844) can0 520#7D69786D00067F0E
(1596560299.697073) can0 521#0000000000001FFF
(1596560299.697074) can0 522#117DB8AB0000FEA4
(1596560299.697074) can0 523#0000000000001FFF
(1596560299.697075) can0 524#0000000000001FFF
(1596560299.698560) can0 525#8997311100003E9E
(1596560299.698561) can0 526#0000000000001FFF
(1596560299.698562) can0 527#0000000000001FFF
(1596560299.698563) can0 528#0000000000001FFF
(1596560299.699227) can0 529#0000000000001FFF
(1596560299.699228) can0 52A#0000000000001FFF
(1596560299.699229) can0 52B#7D68E09300177F1F
(1596560299.699229) can0 52C#0000000000001FFF
(1596560299.700766) can0 52D#0000000000001FFF
(1596560299.700767) can0 52E#0000000000001FFF
(1596560299.700768) can0 52F#0000000000001FFF
(1596560299.700768) can0 530#017930E400007E9D
(1596560299.700925) can0 531#09F949B800003E9D
(1596560299.700926) can0 532#0000000000001FFF
(1596560299.700927) can0 533#0000000000001FFF
(1596560299.700928) can0 534#0000000000001FFF
(1596560299.702146) can0 535#0000000000001FFF
(1596560299.702147) can0 536#0028D06700004D05
(1596560299.702147) can0 537#0000000000001FFF
(1596560299.702148) can0 538#0000000000001FFF
(1596560299.703468) can0 539#0028D06700004D05
(1596560299.703469) can0 53A#0000000000001FFF
(1596560299.703470) can0 53B#B195B95B00003EA7
(1596560299.703470) can0 53C#0000000000001FFF
(1596560299.704771) can0 53D#0000000000001FFF
(1596560299.704772) can0 53E#0000000000001FFF
(1596560299.704773) can0 53F#0000000000001FFF
(1596560299.704774) can0 540#10670A000A0A0A0A
(1596560299.704993) can0 540#110A0A0A0A0A0A0A
(1596560299.704993) can0 540#120A6560600A0A0A
(1596560299.704994) can0 540#130A060A0A000A0A
(1596560299.704995) can0 540#140A0A0A0A210A6B
(1596560299.706418) can0 540#150A0A600A0A0A0A
(1596560299.706419) can0 540#160A6F0A0A0A0A60
(1596560299.706420) can0 540#17200A0A0A0A000A
(1596560299.706421) can0 540#180A000A600A0A0A
(1596560299.707029) can0 540#190A0A0A0A0A0A0A
(1596560299.707030) can0 5D0#59088AFE42FF8B01
(1596560299.707030) can0 5D1#59075EFEE001C705
(1596560299.707031) can0 5E4#82837577BF000057
(1596560299.708880) can0 5E5#8A80638080000000
(1596560299.708881) can0 5E6#0000000000000000
(1596560299.708882) can0 5E7#0000000000000000
(1596560299.708892) can0 5E8#1900000101F20000
(1596560299.709072) can0 5E9#2C6700041A1C0204
(1596560299.709073) can0 5EA#007D7F7D807D7073
(1596560299.709074) can0 5EB#001314001A0C0000
(1596560299.709074) can0 5EC#0090011301130000
(1596560299.710354) can0 5ED#0000000000000000
(1596560299.710355) can0 5EE#0000000000000000
(1596560299.710356) can0 5EF#32010004040C3200
(1596560299.736711) can0 4E0#801FFF1642000000
(1596560299.737717) can0 4E1#FE10003A0000034D
(1596560299.737718) can0 4E2#2C05011E23475900
(1596560299.737719) can0 4E3#0E12000000000000
(1596560299.737719) can0 500#C577316600007EA2
(1596560299.738739) can0 501#0000000000001FFF
(1596560299.738740) can0 502#0000000000001FFF
(1596560299.738740) can0 503#0000000000001FFF
(1596560299.738741) can0 504#0000000000001FFF
(1596560299.739764) can0 505#0000000000001FFF
(1596560299.739765) can0 506#0000000000001FFF
(1596560299.739766) can0 507#0000000000001FFF
(1596560299.740808) can0 508#0000000000001FFF
(1596560299.740809) can0 509#0000000000001FFF
(1596560299.740810) can0 50A#0000000000001FFF
(1596560299.740810) can0 50B#0000000000001FFF
(1596560299.742361) can0 50C#0000000000001FFF
(1596560299.742362) can0 50D#0000000000001FFF
(1596560299.742362) can0 50E#0000000000001FFF
(1596560299.742363) can0 50F#7D6A88A800127F2B
(1596560299.742363) can0 510#C566704503FF7ED6
(1596560299.743049) can0 511#3D9FE83600033EB4
(1596560299.743049) can0 512#0000000000001FFF
(1596560299.743050) can0 513#0000000000001FFF
(1596560299.743051) can0 514#0000000000001FFF
(1596560299.744363) can0 515#0000000000001FFF
(1596560299.744364) can0 516#FD5698C700007EA4
(1596560299.744365) can0 517#0000000000001FFF
(1596560299.744365) can0 518#0000000000001FFF
(1596560299.745655) can0 519#0000000000001FFF
(1596560299.745656) can0 51A#0000000000001FFF
(1596560299.745656) can0 51B#0000000000001FFF
(1596560299.745658) can0 51C#0000000000001FFF
(1596560299.745904) can0 51D#002D189F00007F4B
(1596560299.745905) can0 51E#0000000000001FFF
(1596560299.745906) can0 51F#0000000000001FFF
(1596560299.745906) can0 520#4569986500067F0E
(1596560299.748181) can0 521#0000000000001FFF
(1596560299.748182) can0 522#2D7DF0A90000FEA4
(1596560299.748182) can0 523#0000000000001FFF
(1596560299.748183) can0 524#003B393100007E99
(1596560299.748190) can0 525#8997210F00003E9E
(1596560299.748191) can0 526#0000000000001FFF
(1596560299.748192) can0 527#0000000000001FFF
(1596560299.748192) can0 528#0000000000001FFF
(1596560299.749785) can0 529#0000000000001FFF
(1596560299.749786) can0 52A#0000000000001FFF
(1596560299.749787) can0 52B#5D69708B00187F25
(1596560299.749787) can0 52C#0000000000001FFF
(1596560299.749938) can0 52D#0000000000001FFF
(1596560299.749939) can0 52E#0000000000001FFF
(1596560299.749940) can0 52F#0000000000001FFF
(1596560299.749940) can0 530#019928E200003E9D
(1596560299.751725) can0 531#0000000000001FFF
(1596560299.751726) can0 532#0000000000001FFF
(1596560299.751727) can0 533#0000000000001FFF
(1596560299.751727) can0 534#0000000000001FFF
(1596560299.752015) can0 535#0000000000001FFF
(1596560299.752016) can0 536#0000000000001FFF
(1596560299.752017) can0 537#0000000000001FFF
(1596560299.752017) can0 538#0000000000001FFF
(1596560299.753290) can0 539#0000000000001FFF
(1596560299.753290) can0 53A#0000000000001FFF
(1596560299.753291) can0 53B#B195A95900003EA7
(1596560299.753292) can0 53C#0000000000001FFF
(1596560299.754467) can0 53D#0000000000001FFF
(1596560299.754468) can0 53E#0000000000001FFF
(1596560299.754469) can0 53F#0000000000001FFF
(1596560299.754470) can0 540#00690A0A0A0A0A0A
(1596560299.755841) can0 540#010A0A0A0A0A0A0A
(1596560299.755842) can0 540#020A6C60600A0A0A
(1596560299.755843) can0 540#030A210A0A0A0A0A
(1596560299.755843) can0 540#040A000A0A600A68
(1596560299.756097) can0 540#050A00600A0A0A0A
(1596560299.756098) can0 540#060A600A0A0A0A60
(1596560299.756098) can0 540#070A0A0A0A0A0A0A
(1596560299.756099) can0 540#080A0A0A600A0A0A
(1596560299.757114) can0 540#090A0A0A0A0A0A0A
(1596560299.757115) can0 5D0#59086FFE42FF97FE
(1596560299.757116) can0 5D1#590861FEEF021B02
(1596560299.757116) can0 5E4#83847577BF000058
(1596560299.758113) can0 5E5#8A80638080000000
(1596560299.758114) can0 5E6#0000000000000000
(1596560299.758114) can0 5E7#0000000000000000
(1596560299.758115) can0 5E8#1900000101EF0000
(1596560299.759563) can0 5E9#2C6900041A1C0204
(1596560299.759564) can0 5EA#007D7F7D807D7073
(1596560299.759565) can0 5EB#001314001A0C0000
(1596560299.759565) can0 5EC#0090011301130000
(1596560299.760955) can0 5ED#0000000000000000
(1596560299.760956) can0 5EE#0000000000000000
(1596560299.760956) can0 5EF#32010004040C3200
(1596560299.788301) can0 4E0#C01FFF1643000000
(1596560299.788511) can0 4E1#FF10003A0000034D
(1596560299.788512) can0 4E2#2C05011E23475900
(1596560299.788513) can0 4E3#0F12000000000000
(1596560299.788514) can0 500#C597216400003EA2
(1596560299.790251) can0 501#0000000000001FFF
(1596560299.790252) can0 502#0000000000001FFF
(1596560299.790253) can0 503#0000000000001FFF
(1596560299.790253) can0 504#003C58CC00007EA0
(1596560299.790547) can0 505#0000000000001FFF
(1596560299.790548) can0 506#0000000000001FFF
(1596560299.790548) can0 507#0000000000001FFF
(1596560299.791808) can0 508#0000000000001FFF
(1596560299.791809) can0 509#0000000000001FFF
(1596560299.791810) can0 50A#0000000000001FFF
(1596560299.791810) can0 50B#002B487100004D23
(1596560299.793104) can0 50C#0000000000001FFF
(1596560299.793105) can0 50D#0000000000001FFF
(1596560299.793105) can0 50E#0000000000001FFF
(1596560299.793106) can0 50F#5D6AB8A700127F2F
(1596560299.793107) can0 510#F966B04800017ED9
(1596560299.794418) can0 511#3961D0340008FEBD
(1596560299.794419) can0 512#0000000000001FFF
(1596560299.794420) can0 513#0000000000001FFF
(1596560299.794420) can0 514#0000000000001FFF
(1596560299.794615) can0 515#0000000000001FFF
(1596560299.794616) can0 516#FDF680C500003EA4
(1596560299.794617) can0 517#002BE08900004D3B
(1596560299.794617) can0 518#0000000000001FFF
(1596560299.796138) can0 519#0000000000001FFF
(1596560299.796139) can0 51A#0000000000001FFF
(1596560299.796139) can0 51B#0000000000001FFF
(1596560299.796140) can0 51C#0000000000001FFF
(1596560299.796834) can0 51D#0D4D889E00007F4D
(1596560299.796835) can0 51E#0000000000001FFF
(1596560299.796836) can0 51F#0000000000001FFF
(1596560299.796837) can0 520#7569F86B000D7F1A
(1596560299.798785) can0 521#0000000000001FFF
(1596560299.798786) can0 522#3D7DE8A90001FEA5
(1596560299.798787) can0 523#0000000000001FFF
(1596560299.798787) can0 524#0000000000001FFF
(1596560299.798794) can0 525#8997090D00003E9E
(1596560299.798795) can0 526#0000000000001FFF
(1596560299.798796) can0 527#0000000000001FFF
(1596560299.798796) can0 528#003F68A70000BEA9
(1596560299.800128) can0 529#0000000000001FFF
(1596560299.800138) can0 52A#0000000000001FFF
(1596560299.800139) can0 52B#7D699896001C7F30
(1596560299.800140) can0 52C#0000000000001FFF
(1596560299.801440) can0 52D#0000000000001FFF
(1596560299.801441) can0 52E#0000000000001FFF
(1596560299.801442) can0 52F#0000000000001FFF
(1596560299.801443) can0 530#019918E000003E9D
(1596560299.801733) can0 531#0000000000001FFF
(1596560299.801734) can0 532#0000000000001FFF
(1596560299.801735) can0 533#0000000000001FFF
(1596560299.801735) can0 534#003FD0D30000BEA7
(1596560299.803749) can0 535#0000000000001FFF
(1596560299.803750) can0 536#0000000000001FFF
(1596560299.803751) can0 537#0000000000001FFF
(1596560299.803751) can0 538#0000000000001FFF
(1596560299.803759) can0 539#0000000000001FFF
(1596560299.803759) can0 53A#0000000000001FFF
(1596560299.803760) can0 53B#B195995700003EA7
(1596560299.803761) can0 53C#0000000000001FFF
(1596560299.805184) can0 53D#0000000000001FFF
(1596560299.805186) can0 53E#0028905C00004D02
(1596560299.805186) can0 53F#0000000000001FFF
(1596560299.805187) can0 540#10690A0A0A0B0A0A
(1596560299.805997) can0 540#110A0A0A0A000A0A
(1596560299.805997) can0 540#120A6860600A0A0A
(1596560299.805998) can0 540#130A21000A0A0A0A
(1596560299.805999) can0 540#140A200A0A600A65
(1596560299.807595) can0 540#150A0A600A0A030A
(1596560299.807596) can0 540#160A6B0A0A0A0A60
(1596560299.807597) can0 540#170A0A0A020A0A0A
(1596560299.807598) can0 540#180A0A0A600A0A00
(1596560299.807822) can0 540#190A0A0A0A0A0A0A
(1596560299.807822) can0 5D0#590874FE44FF94FB
(1596560299.807823) can0 5D1#590780FEF601EB01
(1596560299.807824) can0 5E4#83837577C0000058
(1596560299.809099) can0 5E5#8B80638080000000
(1596560299.809099) can0 5E6#0000000000000000
(1596560299.809100) can0 5E7#0000000000000000
(1596560299.809101) can0 5E8#1900000101EF0000
(1596560299.810413) can0 5E9#2C6B00041A1C0204
(1596560299.810414) can0 5EA#007D7F7D807D7073
(1596560299.810415) can0 5EB#001314001A0C0000
(1596560299.810416) can0 5EC#0090011301130000
(1596560299.811086) can0 5ED#0000000000000000
(1596560299.811087) can0 5EE#0000000000000000
(1596560299.811088) can0 5EF#32010004040C3200
(1596560299.838066) can0 4E0#001FFF1644000000
(1596560299.838716) can0 4E1#FC10003A0000034D
(1596560299.838717) can0 4E2#2C05011E23475900
(1596560299.838718) can0 4E3#0C12000000000000
(1596560299.838719) can0 500#C597116200003EA2
(1596560299.840250) can0 501#0000000000001FFF
(1596560299.840251) can0 502#0000000000001FFF
(1596560299.840252) can0 503#0000000000001FFF
(1596560299.840253) can0 504#0000000000001FFF
(1596560299.840523) can0 505#002C007900007F3D
(1596560299.840524) can0 506#0000000000001FFF
(1596560299.840524) can0 507#0000000000001FFF
(1596560299.840525) can0 508#0000000000001FFF
(1596560299.842037) can0 509#0000000000001FFF
(1596560299.842038) can0 50A#0039509800007EA1
(1596560299.842039) can0 50B#0000000000001FFF
(1596560299.842040) can0 50C#0000000000001FFF
(1596560299.842815) can0 50D#0000000000001FFF
(1596560299.842816) can0 50E#0022E83700006FB1
(1596560299.842817) can0 50F#456AE0A800127F33
(1596560299.842818) can0 510#0566F84700027EE4
(1596560299.844410) can0 511#316228330008FEC0
(1596560299.844411) can0 512#0000000000001FFF
(1596560299.844411) can0 513#0000000000001FFF
(1596560299.844412) can0 514#0000000000001FFF
(1596560299.844573) can0 515#0038798D00007EA1
(1596560299.844574) can0 516#095688C300007EA4
(1596560299.844584) can0 517#0000000000001FFF
(1596560299.844585) can0 518#0000000000001FFF
(1596560299.846114) can0 519#0000000000001FFF
(1596560299.846115) can0 51A#0000000000001FFF
(1596560299.846116) can0 51B#0000000000001FFF
(1596560299.846116) can0 51C#0000000000001FFF
(1596560299.846821) can0 51D#254D60A400007F4D
(1596560299.846823) can0 51E#0000000000001FFF
(1596560299.846823) can0 51F#0000000000001FFF
(1596560299.846824) can0 520#5D6A6068000F7F20
(1596560299.848692) can0 521#0000000000001FFF
(1596560299.848693) can0 522#017DB0AD0001FEA5
(1596560299.848693) can0 523#0000000000001FFF
(1596560299.848694) can0 524#0000000000001FFF
(1596560299.848702) can0 525#0000000000001FFF
(1596560299.848702) can0 526#0000000000001FFF
(1596560299.848703) can0 527#0000000000001FFF
(1596560299.848704) can0 528#295FE0A70000FEAF
(1596560299.850018) can0 529#0000000000001FFF
(1596560299.850019) can0 52A#0000000000001FFF
(1596560299.850020) can0 52B#7D89A895001C3F36
(1596560299.850020) can0 52C#0000000000001FFF
(1596560299.850847) can0 52D#0000000000001FFF
(1596560299.850847) can0 52E#0039899D00007E9F
(1596560299.850848) can0 52F#003AB19D00007E9F
(1596560299.850849) can0 530#019908DF00003E9D
(1596560299.852404) can0 531#0000000000001FFF
(1596560299.852405) can0 532#0000000000001FFF
(1596560299.852406) can0 533#0000000000001FFF
(1596560299.852407) can0 534#F95FB0D30000BEA7
(1596560299.852729) can0 535#0000000000001FFF
(1596560299.852730) can0 536#0000000000001FFF
(1596560299.852731) can0 537#0000000000001FFF
(1596560299.852731) can0 538#0000000000001FFF
(1596560299.854280) can0 539#0000000000001FFF
(1596560299.854281) can0 53A#0000000000001FFF
(1596560299.854282) can0 53B#0000000000001FFF
(1596560299.854283) can0 53C#0000000000001FFF
(1596560299.855651) can0 53D#0000000000001FFF
(1596560299.855652) can0 53E#0000000000001FFF
(1596560299.855653) can0 53F#0000000000001FFF
(1596560299.855653) can0 540#00690A0A0A0A000A
(1596560299.855799) can0 540#010A0A0A000A0A0A
(1596560299.855800) can0 540#02006860600A0A0A
(1596560299.855801) can0 540#0305220A0A0A0A0A
(1596560299.855802) can0 540#040A2A0A0A600A68
(1596560299.857013) can0 540#050A0A0A0A0A260A
(1596560299.857013) can0 540#060A6B0A0A020260
(1596560299.857014) can0 540#070A0A0A210A0A0A
(1596560299.857015) can0 540#080A0A0A0A0A0A0A
(1596560299.858319) can0 540#090A0A0A0A0A0A0A
(1596560299.858320) can0 5D0#5908A3FE44FF89FE
(1596560299.858321) can0 5D1#590861FEFA022DFE
(1596560299.858322) can0 5E4#83847577BF000057
(1596560299.859588) can0 5E5#8A80638080000000
(1596560299.859589) can0 5E6#0000000000000000
(1596560299.859589) can0 5E7#0000000000000000
(1596560299.859590) can0 5E8#1900000101EF0000
(1596560299.859827) can0 5E9#2C6D00041A1C0204
(1596560299.859828) can0 5EA#007D7F7D807D7073
(1596560299.859828) can0 5EB#001314001A0C0000
(1596560299.859829) can0 5EC#0090011301130000
(1596560299.861100) can0 5ED#0000000000000000
(1596560299.861101) can0 5EE#0000000000000000
(1596560299.861101) can0 5EF#32010004040C3200
(1596560299.887434) can0 4E0#401FFF1645000000
(1596560299.888752) can0 4E1#FD10003A0000034D
(1596560299.888753) can0 4E2#2C05011E23475900
(1596560299.888754) can0 4E3#0D12000000000000
(1596560299.888754) can0 500#0577B15D00007EA2
(1596560299.890287) can0 501#0000000000001FFF
(1596560299.890288) can0 502#0000000000001FFF
(1596560299.890289) can0 503#0000000000001FFF
(1596560299.890299) can0 504#0000000000001FFF
(1596560299.890489) can0 505#0D4C907800007F41
(1596560299.890490) can0 506#0000000000001FFF
(1596560299.890491) can0 507#002DA8CA00007F59
(1596560299.890492) can0 508#0000000000001FFF
(1596560299.891775) can0 509#0000000000001FFF
(1596560299.891776) can0 50A#F959009600007EA1
(1596560299.891776) can0 50B#0000000000001FFF
(1596560299.891777) can0 50C#0000000000001FFF
(1596560299.893081) can0 50D#003B812C00007EA1
(1596560299.893082) can0 50E#0000000000001FFF
(1596560299.893082) can0 50F#316B20A600127F38
(1596560299.893083) can0 510#0967804200087EEE
(1596560299.894396) can0 511#3162603100097EC4
(1596560299.894397) can0 512#0000000000001FFF
(1596560299.894397) can0 513#0000000000001FFF
(1596560299.894398) can0 514#0000000000001FFF
(1596560299.894533) can0 515#0958898800007EA1
(1596560299.894534) can0 516#DD75F0C100017EA9
(1596560299.894535) can0 517#0000000000001FFF
(1596560299.894536) can0 518#0000000000001FFF
(1596560299.895969) can0 519#0000000000001FFF
(1596560299.895970) can0 51A#0039B95200007EA3
(1596560299.895970) can0 51B#0000000000001FFF
(1596560299.895971) can0 51C#0000000000001FFF
(1596560299.897063) can0 51D#756D58A900007F4E
(1596560299.897064) can0 51E#0000000000001FFF
(1596560299.897065) can0 51F#0000000000001FFF
(1596560299.897065) can0 520#396AC06300107F24
(1596560299.897781) can0 521#0000000000001FFF
(1596560299.897782) can0 522#ED7DC8BF0001FEA5
(1596560299.897782) can0 523#0000000000001FFF
(1596560299.897783) can0 524#0000000000001FFF
(1596560299.899328) can0 525#0000000000001FFF
(1596560299.899329) can0 526#0000000000001FFF
(1596560299.899330) can0 527#0000000000001FFF
(1596560299.899331) can0 528#7D6058A70003FEB4
(1596560299.899610) can0 529#0000000000001FFF
(1596560299.899611) can0 52A#0000000000001FFF
(1596560299.899611) can0 52B#7D89C094001C3F3D
(1596560299.899612) can0 52C#0000000000001FFF
(1596560299.900875) can0 52D#0000000000001FFF
(1596560299.900876) can0 52E#F559519900007EA0
(1596560299.900877) can0 52F#F15A599400007EA0
(1596560299.900877) can0 530#0000000000001FFF
(1596560299.902187) can0 531#0000000000001FFF
(1596560299.902188) can0 532#0000000000001FFF
(1596560299.902189) can0 533#0000000000001FFF
(1596560299.902189) can0 534#E55F78D30000BEA7
(1596560299.903536) can0 535#0000000000001FFF
(1596560299.903536) can0 536#0000000000001FFF
(1596560299.903537) can0 537#0000000000001FFF
(1596560299.903538) can0 538#0000000000001FFF
(1596560299.903637) can0 539#0000000000001FFF
(1596560299.903638) can0 53A#0000000000001FFF
(1596560299.903639) can0 53B#0000000000001FFF
(1596560299.903639) can0 53C#0000000000001FFF
(1596560299.904990) can0 53D#0000000000001FFF
(1596560299.904991) can0 53E#0000000000001FFF
(1596560299.904992) can0 53F#0000000000001FFF
(1596560299.904993) can0 540#10630A0A0A0A200A
(1596560299.906283) can0 540#11020A0A220A0A00
(1596560299.906284) can0 540#120A6060600A0A0A
(1596560299.906284) can0 540#1320240A0A0A030A
(1596560299.906285) can0 540#140A2A0A0A600A6B
(1596560299.906959) can0 540#150A0A0A0A0A290A
(1596560299.906960) can0 540#160A6B0A0A21200A
(1596560299.906961) can0 540#170A0A0A240A0A0A
(1596560299.906961) can0 540#180A0A0A0A0A0A0A
(1596560299.908498) can0 540#190A0A0A0A0A0A0A
(1596560299.908499) can0 5D0#590988FE44FF8F01
(1596560299.908500) can0 5D1#590988FE44FF8F01
(1596560299.908500) can0 5E4#83837577BF000057
(1596560299.908772) can0 5E5#8A80638080000000
(1596560299.908773) can0 5E6#0000000000000000
(1596560299.908774) can0 5E7#0000000000000000
(1596560299.908774) can0 5E8#1900000101F40000
(1596560299.910282) can0 5E9#2C6F00041A1C0204
(1596560299.910283) can0 5EA#007D7F7D807D7073
(1596560299.910283) can0 5EB#001314001A0C0000
(1596560299.910284) can0 5EC#0090011301130000
(1596560299.911642) can0 5ED#0000000000000000
(1596560299.911643) can0 5EE#0000000000000000
(1596560299.911644) can0 5EF#32010004040C3200
(1596560299.937852) can0 4E0#801FFF1646000000
(1596560299.939372) can0 4E1#FE10003A0000034D
(1596560299.939373) can0 4E2#2C05011E23475900
(1596560299.939374) can0 4E3#0E12000000000000
(1596560299.939375) can0 500#2977B95600007EA2
(1596560299.939421) can0 501#0000000000001FFF
(1596560299.939422) can0 502#0000000000001FFF
(1596560299.939422) can0 503#0000000000001FFF
(1596560299.939423) can0 504#0000000000001FFF
(1596560299.940953) can0 505#194CF07800017F45
(1596560299.940954) can0 506#0000000000001FFF
(1596560299.940955) can0 507#0000000000001FFF
(1596560299.940955) can0 508#0000000000001FFF
(1596560299.942503) can0 509#0000000000001FFF
(1596560299.942504) can0 50A#CD58109500007EA3
(1596560299.942504) can0 50B#0000000000001FFF
(1596560299.942505) can0 50C#0000000000001FFF
(1596560299.942512) can0 50D#155BB92A00007EA2
(1596560299.942513) can0 50E#0000000000001FFF
(1596560299.942514) can0 50F#318B30A500123F3C
(1596560299.942515) can0 510#0968183E000D7EF8
(1596560299.944072) can0 511#2D62982F00097EC7
(1596560299.944073) can0 512#0000000000001FFF
(1596560299.944074) can0 513#0000000000001FFF
(1596560299.944074) can0 514#0000000000001FFF
(1596560299.945381) can0 515#09F8798600003EA1
(1596560299.945382) can0 516#F17608BF00007EA8
(1596560299.945383) can0 517#0000000000001FFF
(1596560299.945383) can0 518#0000000000001FFF
(1596560299.945573) can0 519#0000000000001FFF
(1596560299.945574) can0 51A#0000000000001FFF
(1596560299.945575) can0 51B#0000000000001FFF
(1596560299.945576) can0 51C#0000000000001FFF
(1596560299.946888) can0 51D#7D6D58AD00007F4F
(1596560299.946889) can0 51E#0000000000001FFF
(1596560299.946890) can0 51F#0000000000001FFF
(1596560299.946890) can0 520#156B285E00107F28
(1596560299.948780) can0 521#0000000000001FFF
(1596560299.948781) can0 522#157E30C20001FEA7
(1596560299.948782) can0 523#0000000000001FFF
(1596560299.948783) can0 524#0000000000001FFF
(1596560299.948790) can0 525#0000000000001FFF
(1596560299.948791) can0 526#0000000000001FFF
(1596560299.948791) can0 527#0000000000001FFF
(1596560299.948792) can0 528#7D60B0A70005FEB9
(1596560299.950362) can0 529#0000000000001FFF
(1596560299.950363) can0 52A#0000000000001FFF
(1596560299.950364) can0 52B#7D89D093001C3F43
(1596560299.950365) can0 52C#0000000000001FFF
(1596560299.950637) can0 52D#0000000000001FFF
(1596560299.950638) can0 52E#F5F9499700003EA0
(1596560299.950639) can0 52F#DD5A299100007EA0
(1596560299.950639) can0 530#0000000000001FFF
(1596560299.951899) can0 531#0000000000001FFF
(1596560299.951901) can0 532#0000000000001FFF
(1596560299.951901) can0 533#0000000000001FFF
(1596560299.951902) can0 534#E5FF70D200003EA7
(1596560299.953259) can0 535#0000000000001FFF
(1596560299.953260) can0 536#0000000000001FFF
(1596560299.953260) can0 537#0000000000001FFF
(1596560299.953261) can0 538#0000000000001FFF
(1596560299.954471) can0 539#0000000000001FFF
(1596560299.954481) can0 53A#0000000000001FFF
(1596560299.954482) can0 53B#0000000000001FFF
(1596560299.954482) can0 53C#0000000000001FFF
(1596560299.954740) can0 53D#003BA0F800007EA3
(1596560299.954741) can0 53E#0000000000001FFF
(1596560299.954742) can0 53F#0000000000001FFF
(1596560299.954742) can0 540#00650A0A0A0A200A
(1596560299.956254) can0 540#010A0A0A200A0A20
(1596560299.956255) can0 540#020A6060600A0A0A
(1596560299.956256) can0 540#0320230A0A0A0A0A
(1596560299.956257) can0 540#040A260A0A600A64
(1596560299.956930) can0 540#050A0A0A0A0A670A
(1596560299.956931) can0 540#060A6B0A0A21200A
(1596560299.956932) can0 540#070A0A0A240A0A0A
(1596560299.956933) can0 540#080A0A0A0A0A000A
(1596560299.958475) can0 540#090A0A0A0A0A0A0A
(1596560299.958476) can0 5D0#59085EFE5D0023FD
(1596560299.958476) can0 5D1#59085EFE5D0023FD
(1596560299.958477) can0 5E4#84857577BF000058
(1596560299.958808) can0 5E5#8A80638080000000
(1596560299.958809) can0 5E6#0000000000000000
(1596560299.958809) can0 5E7#0000000000000000
(1596560299.958810) can0 5E8#1900000101FA0000
(1596560299.960120) can0 5E9#2C7100041A1C0204
(1596560299.960121) can0 5EA#007D7F7D807D7073
(1596560299.960122) can0 5EB#001314001A0C0000
(1596560299.960122) can0 5EC#0090011301130000
(1596560299.961423) can0 5ED#0000000000000000
(1596560299.961424) can0 5EE#0000000000000000
(1596560299.961424) can0 5EF#32010004040C3200
(1596560299.987565) can0 4E0#C01FFF1647000000
(1596560299.988615) can0 4E1#FF10003A0000034D
(1596560299.988616) can0 4E2#2C05011E23475900
(1596560299.988616) can0 4E3#0F12000000000000
(1596560299.988617) can0 500#2997A95400003EA2
(1596560299.990256) can0 501#0000000000001FFF
(1596560299.990257) can0 502#0000000000001FFF
(1596560299.990258) can0 503#0000000000001FFF
(1596560299.990258) can0 504#0000000000001FFF
(1596560299.991563) can0 505#19ED107700013F45
(1596560299.991564) can0 506#0000000000001FFF
(1596560299.991565) can0 507#0000000000001FFF
(1596560299.991566) can0 508#003BE1A700007EAA
(1596560299.991705) can0 509#0000000000001FFF
(1596560299.991706) can0 50A#8177D09E00007EA7
(1596560299.991706) can0 50B#0000000000001FFF
(1596560299.991707) can0 50C#0000000000001FFF
(1596560299.992934) can0 50D#ED5B692F00007EA3
(1596560299.992935) can0 50E#0000000000001FFF
(1596560299.992935) can0 50F#318B48A400123F40
(1596560299.992936) can0 510#2568604000137F03
(1596560299.994243) can0 511#2962D82E00097ECA
(1596560299.994244) can0 512#0000000000001FFF
(1596560299.994245) can0 513#0000000000001FFF
(1596560299.994246) can0 514#0000000000001FFF
(1596560299.994926) can0 515#0000000000001FFF
(1596560299.994927) can0 516#CD75C8C200037EAE
(1596560299.994928) can0 517#0000000000001FFF
(1596560299.994929) can0 518#0000000000001FFF
(1596560299.996475) can0 519#0000000000001FFF
(1596560299.996476) can0 51A#0000000000001FFF
(1596560299.996477) can0 51B#0000000000001FFF
(1596560299.996477) can0 51C#002CB06400004D3F
(1596560299.996761) can0 51D#7D6D70AF00017F50
(1596560299.996762) can0 51E#003A108D000070B2
(1596560299.996763) can0 51F#0000000000001FFF
(1596560299.996764) can0 520#496B606400117F30
(1596560299.998788) can0 521#0000000000001FFF
(1596560299.998789) can0 522#017E38C700017EA6
(1596560299.998790) can0 523#0000000000001FFF
(1596560299.998790) can0 524#0000000000001FFF
(1596560299.998798) can0 525#0000000000001FFF
(1596560299.998798) can0 526#0000000000001FFF
(1596560299.998808) can0 527#0000000000001FFF
(1596560299.998809) can0 528#7D60D8A70006FEBA
(1596560300.000405) can0 529#003F00D500007EB7
(1596560300.000406) can0 52A#0000000000001FFF
(1596560300.000406) can0 52B#0000000000001FFF
(1596560300.000407) can0 52C#0000000000001FFF
(1596560300.001081) can0 52D#0000000000001FFF
(1596560300.001081) can0 52E#0000000000001FFF
(1596560300.001082) can0 52F#F95A599100007EA1
(1596560300.001083) can0 530#0000000000001FFF
(1596560300.002031) can0 531#0000000000001FFF
(1596560300.002032) can0 532#0039394000007EA4
(1596560300.002032) can0 533#0000000000001FFF
(1596560300.002033) can0 534#0000000000001FFF
(1596560300.003835) can0 535#0000000000001FFF
(1596560300.003836) can0 536#0000000000001FFF
(1596560300.003836) can0 537#0000000000001FFF
(1596560300.003837) can0 538#0000000000001FFF
(1596560300.003856) can0 539#0000000000001FFF
(1596560300.003857) can0 53A#0000000000001FFF
(1596560300.003858) can0 53B#0000000000001FFF
(1596560300.003858) can0 53C#0000000000001FFF
(1596560300.005184) can0 53D#095BB8F500007EA4
(1596560300.005185) can0 53E#0000000000001FFF
(1596560300.005186) can0 53F#0000000000001FFF
(1596560300.005186) can0 540#10650A0A0A0A200A
(1596560300.006473) can0 540#110A050A240A0A20
(1596560300.006474) can0 540#120A6060600A0A0A
(1596560300.006474) can0 540#130A600A0A0A0A0A
(1596560300.006475) can0 540#140067000A600A64
(1596560300.007154) can0 540#150A0A0A0A0A6707
(1596560300.007155) can0 540#160A0A0A0A0A240A
(1596560300.007156) can0 540#170A000A0A0A0A0A
(1596560300.007156) can0 540#180A0A0A0A0A200A
(1596560300.008701) can0 540#190A0A0A0A0A0A0A
(1596560300.008702) can0 5D0#590854FE5F002BFD
(1596560300.008703) can0 5D1#590854FE5F002BFD
(1596560300.008703) can0 5E4#84847577C0000058
(1596560300.008979) can0 5E5#8B80638080000000
(1596560300.008980) can0 5E6#0000000000000000
(1596560300.008981) can0 5E7#0000000000000000
(1596560300.008982) can0 5E8#1900000101FA0000
(1596560300.010497) can0 5E9#2C7300041A1C0204
(1596560300.010498) can0 5EA#007D7F7D807D7073
(1596560300.010499) can0 5EB#001314001A0C0000
(1596560300.010500) can0 5EC#0090011301130000
(1596560300.011808) can0 5ED#0000000000000000
(1596560300.011809) can0 5EE#0000000000000000
(1596560300.011810) can0 5EF#32010004040C3200
(1596560300.038743) can0 4E0#001FFF1648000000
(1596560300.038750) can0 4E1#FC10003A0000034D
(1596560300.038751) can0 4E2#2C05011E23475900
(1596560300.038751) can0 4E3#0C12000000000000
(1596560300.038752) can0 500#4977E95300007EA3
(1596560300.040323) can0 501#0000000000001FFF
(1596560300.040324) can0 502#0000000000001FFF
(1596560300.040324) can0 503#0000000000001FFF
(1596560300.040325) can0 504#0000000000001FFF
(1596560300.041634) can0 505#0000000000001FFF
(1596560300.041635) can0 506#0000000000001FFF
(1596560300.041636) can0 507#0000000000001FFF
(1596560300.041637) can0 508#055BD1A000007EAA
(1596560300.041803) can0 509#0000000000001FFF
(1596560300.041804) can0 50A#8177E8A400017EA8
(1596560300.041805) can0 50B#0000000000001FFF
(1596560300.041806) can0 50C#0000000000001FFF
(1596560300.043495) can0 50D#B97B413300007EA4
(1596560300.043495) can0 50E#0000000000001FFF
(1596560300.043496) can0 50F#318B60A300123F44
(1596560300.043497) can0 510#3D68C04200197F11
(1596560300.043933) can0 511#2D63502C000A7ECF
(1596560300.043934) can0 512#0000000000001FFF
(1596560300.043934) can0 513#0000000000001FFF
(1596560300.043944) can0 514#0000000000001FFF
(1596560300.045253) can0 515#0000000000001FFF
(1596560300.045254) can0 516#CD95B0C000033EAE
(1596560300.045254) can0 517#0000000000001FFF
(1596560300.045255) can0 518#0000000000001FFF
(1596560300.046471) can0 519#0000000000001FFF
(1596560300.046472) can0 51A#0000000000001FFF
(1596560300.046473) can0 51B#0000000000001FFF
(1596560300.046474) can0 51C#0000000000001FFF
(1596560300.047174) can0 51D#7D8D88AE00013F50
(1596560300.047175) can0 51E#0000000000001FFF
(1596560300.047176) can0 51F#0000000000001FFF
(1596560300.047177) can0 520#356BC06100127F3C
(1596560300.048681) can0 521#0000000000001FFF
(1596560300.048682) can0 522#097E38C700017EA7
(1596560300.048683) can0 523#0000000000001FFF
(1596560300.048684) can0 524#0000000000001FFF
(1596560300.048912) can0 525#0000000000001FFF
(1596560300.048913) can0 526#0000000000001FFF
(1596560300.048914) can0 527#0000000000001FFF
(1596560300.048915) can0 528#7D60C8AC0006FEBD
(1596560300.050153) can0 529#0000000000001FFF
(1596560300.050154) can0 52A#0000000000001FFF
(1596560300.050155) can0 52B#0000000000001FFF
(1596560300.050155) can0 52C#002248A60000BEC2
(1596560300.051466) can0 52D#0000000000001FFF
(1596560300.051467) can0 52E#0000000000001FFF
(1596560300.051468) can0 52F#E95A298B00007EA3
(1596560300.051469) can0 530#0000000000001FFF
(1596560300.052853) can0 531#0000000000001FFF
(1596560300.052854) can0 532#0000000000001FFF
(1596560300.052855) can0 533#002268C90000BEBB
(1596560300.052855) can0 534#0000000000001FFF
(1596560300.052996) can0 535#0000000000001FFF
(1596560300.052997) can0 536#0000000000001FFF
(1596560300.052997) can0 537#003A889200007EA9
(1596560300.052998) can0 538#0000000000001FFF
(1596560300.054207) can0 539#0000000000001FFF
(1596560300.054208) can0 53A#003F009600007EB2
(1596560300.054209) can0 53B#0000000000001FFF
(1596560300.054209) can0 53C#0000000000001FFF
(1596560300.055530) can0 53D#09FBA8F400003EA4
(1596560300.055531) can0 53E#0000000000001FFF
(1596560300.055531) can0 53F#0000000000001FFF
(1596560300.055532) can0 540#00600A0A0A0A0A0A
(1596560300.056831) can0 540#010A270A260A0A20
(1596560300.056832) can0 540#020A6060600A0A0A
(1596560300.056832) can0 540#030A600A0A0A0A0A
(1596560300.056833) can0 540#040A670A0A600A60
(1596560300.057058) can0 540#050A0A0A0A0A6A0A
(1596560300.057059) can0 540#060A0A060A0A220A
(1596560300.057059) can0 540#070A0A020A0A0A00
(1596560300.057060) can0 540#080A0A000A0A200A
(1596560300.058332) can0 540#090A0A0A0A0A0A0A
(1596560300.058333) can0 5D0#590898FE62002800
(1596560300.058333) can0 5D1#590898FE62002800
(1596560300.058334) can0 5E4#83847577BF000058
(1596560300.059584) can0 5E5#8A80638080000000
(1596560300.059585) can0 5E6#0000000000000000
(1596560300.059586) can0 5E7#0000000000000000
(1596560300.059586) can0 5E8#1900000100020000
(1596560300.060877) can0 5E9#2C7500041A1C0204
(1596560300.060878) can0 5EA#007D7F7D807D7073
(1596560300.060879) can0 5EB#001314001A0C0000
(1596560300.060879) can0 5EC#0090011301130000
(1596560300.061093) can0 5ED#0000000000000000
(1596560300.061094) can0 5EE#0000000000000000
(1596560300.061095) can0 5EF#32010004040C3200
(1596560300.088688) can0 4E0#401FFF1649000000
(1596560300.088695) can0 4E1#FD1000390000034D
(1596560300.088696) can0 4E2#2C05011E23475900
(1596560300.088696) can0 4E3#0D12000000000000
(1596560300.088697) can0 500#4997D95200003EA3
(1596560300.089979) can0 501#0000000000001FFF
(1596560300.089980) can0 502#0000000000001FFF
(1596560300.089980) can0 503#0000000000001FFF
(1596560300.089981) can0 504#0000000000001FFF
(1596560300.090685) can0 505#0000000000001FFF
(1596560300.090686) can0 506#0000000000001FFF
(1596560300.090687) can0 507#0000000000001FFF
(1596560300.090687) can0 508#1D5C11A200007EAB
(1596560300.092218) can0 509#0000000000001FFF
(1596560300.092219) can0 50A#8197D0A200013EA8
(1596560300.092220) can0 50B#0000000000001FFF
(1596560300.092220) can0 50C#0000000000001FFF
(1596560300.092892) can0 50D#C57B593600017EA6
(1596560300.092893) can0 50E#0000000000001FFF
(1596560300.092894) can0 50F#0000000000001FFF
(1596560300.092894) can0 510#49694042001F7F21
(1596560300.094196) can0 511#2D63E02B000B7EDC
(1596560300.094197) can0 512#0000000000001FFF
(1596560300.094198) can0 513#0000000000001FFF
(1596560300.094199) can0 514#0000000000001FFF
(1596560300.095523) can0 515#0000000000001FFF
(1596560300.095524) can0 516#CD9598BF00033EAE
(1596560300.095524) can0 517#0000000000001FFF
(1596560300.095525) can0 518#0000000000001FFF
(1596560300.095763) can0 519#0000000000001FFF
(1596560300.095764) can0 51A#0000000000001FFF
(1596560300.095764) can0 51B#0000000000001FFF
(1596560300.095765) can0 51C#0000000000001FFF
(1596560300.097086) can0 51D#7D8D98AD00013F50
(1596560300.097087) can0 51E#0000000000001FFF
(1596560300.097088) can0 51F#0039F14300007EB7
(1596560300.097088) can0 520#358BE86000123F40
(1596560300.098779) can0 521#0000000000001FFF
(1596560300.098780) can0 522#017E28C200017EA8
(1596560300.098780) can0 523#0000000000001FFF
(1596560300.098781) can0 524#0000000000001FFF
(1596560300.098788) can0 525#0000000000001FFF
(1596560300.098789) can0 526#0000000000001FFF
(1596560300.098790) can0 527#0000000000001FFF
(1596560300.098790) can0 528#7D6138A70006FEC0
(1596560300.100369) can0 529#0000000000001FFF
(1596560300.100370) can0 52A#0000000000001FFF
(1596560300.100371) can0 52B#0000000000001FFF
(1596560300.100371) can0 52C#0000000000001FFF
(1596560300.100945) can0 52D#0000000000001FFF
(1596560300.100946) can0 52E#0000000000001FFF
(1596560300.100947) can0 52F#F97A418600007EA5
(1596560300.100947) can0 530#0000000000001FFF
(1596560300.102248) can0 531#0000000000001FFF
(1596560300.102249) can0 532#0000000000001FFF
(1596560300.102249) can0 533#0000000000001FFF
(1596560300.102250) can0 534#0000000000001FFF
(1596560300.103823) can0 535#0000000000001FFF
(1596560300.103824) can0 536#0000000000001FFF
(1596560300.103825) can0 537#295B909100007EAB
(1596560300.103825) can0 538#0000000000001FFF
(1596560300.103849) can0 539#0000000000001FFF
(1596560300.103850) can0 53A#0000000000001FFF
(1596560300.103851) can0 53B#0000000000001FFF
(1596560300.103852) can0 53C#0039F14200007EAF
(1596560300.105429) can0 53D#115BB8F200007EA7
(1596560300.105429) can0 53E#0000000000001FFF
(1596560300.105430) can0 53F#0000000000001FFF
(1596560300.105431) can0 540#10600A0A0A0A0A0A
(1596560300.106120) can0 540#110A230A260A0A20
(1596560300.106121) can0 540#120A0A60600A0A0A
(1596560300.106122) can0 540#130A600A0A0A0A0A
(1596560300.106122) can0 540#140A670A00600A61
(1596560300.107693) can0 540#150A0A0A0A0A6B0A
(1596560300.107694) can0 540#160A0A0A0A0A610A
(1596560300.107694) can0 540#170A0A0A0A0A0A20
(1596560300.107695) can0 540#180A0A0A0A00200A
(1596560300.107970) can0 540#190A0A0A0A0A0A0A
(1596560300.107980) can0 5D0#59085BFE66003F01
(1596560300.107981) can0 5D1#59085BFE66003F01
(1596560300.107981) can0 5E4#84847577BF000058
(1596560300.109259) can0 5E5#8A80638080000000
(1596560300.109260) can0 5E6#0000000000000000
(1596560300.109260) can0 5E7#0000000000000000
(1596560300.109261) can0 5E8#1900000100020000
(1596560300.110474) can0 5E9#2C7700041A1C0204
(1596560300.110476) can0 5EA#007D7F7D807D7073
(1596560300.110476) can0 5EB#001314001A0C0000
(1596560300.110477) can0 5EC#0090011301130000
(1596560300.111201) can0 5ED#0000000000000000
(1596560300.111202) can0 5EE#0000000000000000
(1596560300.111203) can0 5EF#32010104040C3200
(1596560300.137734) can0 4E0#801FFF164A000000
(1596560300.137742) can0 4E1#FE10003A0000034D
(1596560300.137742) can0 4E2#2C05011E23475900
(1596560300.137743) can0 4E3#0E12000000000000
(1596560300.137744) can0 500#6578194E00017EA4
(1596560300.139523) can0 501#002088D300007ECA
(1596560300.139524) can0 502#0000000000001FFF
(1596560300.139525) can0 503#0000000000001FFF
(1596560300.139525) can0 504#0000000000001FFF
(1596560300.139798) can0 505#0000000000001FFF
(1596560300.139799) can0 506#0000000000001FFF
(1596560300.139800) can0 507#0000000000001FFF
(1596560300.139801) can0 508#69BC39A000007EAD
(1596560300.141311) can0 509#0000000000001FFF
(1596560300.141312) can0 50A#8177D0A400047EAD
(1596560300.141313) can0 50B#0000000000001FFF
(1596560300.141314) can0 50C#0000000000001FFF
(1596560300.142469) can0 50D#BD7B494900037EAD
(1596560300.142470) can0 50E#0000000000001FFF
(1596560300.142471) can0 50F#0000000000001FFF
(1596560300.142471) can0 510#4969B84100237F2E
(1596560300.143143) can0 511#29643029000E7EE2
(1596560300.143144) can0 512#0000000000001FFF
(1596560300.143144) can0 513#0000000000001FFF
(1596560300.143145) can0 514#0000000000001FFF
(1596560300.144446) can0 515#0000000000001FFF
(1596560300.144447) can0 516#CD9580BD00033EAE
(1596560300.144448) can0 517#0000000000001FFF
(1596560300.144448) can0 518#003828B600007EB7
(1596560300.144951) can0 519#0000000000001FFF
(1596560300.144952) can0 51A#0000000000001FFF
(1596560300.144953) can0 51B#0000000000001FFF
(1596560300.144953) can0 51C#0000000000001FFF
(1596560300.146251) can0 51D#7D8DB0AC00013F50
(1596560300.146251) can0 51E#0000000000001FFF
(1596560300.146252) can0 51F#FD59E94303FF7EB6
(1596560300.146253) can0 520#358C105F00123F44
(1596560300.148180) can0 521#0000000000001FFF
(1596560300.148181) can0 522#217ED0BE0002FEAC
(1596560300.148181) can0 523#0000000000001FFF
(1596560300.148182) can0 524#0000000000001FFF
(1596560300.148190) can0 525#0000000000001FFF
(1596560300.148190) can0 526#0000000000001FFF
(1596560300.148191) can0 527#0000000000001FFF
(1596560300.148191) can0 528#7D6188A40007FEC4
(1596560300.149573) can0 529#0000000000001FFF
(1596560300.149574) can0 52A#0000000000001FFF
(1596560300.149575) can0 52B#0000000000001FFF
(1596560300.149576) can0 52C#0000000000001FFF
(1596560300.149990) can0 52D#0000000000001FFF
(1596560300.149991) can0 52E#0000000000001FFF
(1596560300.149992) can0 52F#017A418300027EA8
(1596560300.149992) can0 530#0000000000001FFF
(1596560300.151441) can0 531#0000000000001FFF
(1596560300.151441) can0 532#0000000000001FFF
(1596560300.151442) can0 533#0000000000001FFF
(1596560300.151443) can0 534#0000000000001FFF
(1596560300.152737) can0 535#0000000000001FFF
(1596560300.152738) can0 536#0000000000001FFF
(1596560300.152748) can0 537#455C008F00007EAE
(1596560300.152748) can0 538#0000000000001FFF
(1596560300.153058) can0 539#0000000000001FFF
(1596560300.153059) can0 53A#0000000000001FFF
(1596560300.153059) can0 53B#0000000000001FFF
(1596560300.153060) can0 53C#0000000000001FFF
(1596560300.154352) can0 53D#317BE0EF00017EAA
(1596560300.154353) can0 53E#0000000000001FFF
(1596560300.154354) can0 53F#0000000000001FFF
(1596560300.154354) can0 540#0062010A0A0A0A0A
(1596560300.155656) can0 540#010A210A630A0A66
(1596560300.155657) can0 540#020A0A60600A0A0A
(1596560300.155658) can0 540#030A600A030A0A0A
(1596560300.155658) can0 540#040A670A22600A61
(1596560300.156956) can0 540#050A0A0A0A0A650A
(1596560300.156956) can0 540#060A0A0A0A0A660A
(1596560300.156957) can0 540#070A0A0A0A0A0A20
(1596560300.156958) can0 540#080A0A0A0A0A200A
(1596560300.157118) can0 540#090A0A0A0A0A0A0A
(1596560300.157119) can0 5D0#59082FFE6B004FFB
(1596560300.157120) can0 5D1#59082FFE6B004FFB
(1596560300.157121) can0 5E4#83847577C0000058
(1596560300.158344) can0 5E5#8B80638080000000
(1596560300.158346) can0 5E6#0000000000000000
(1596560300.158346) can0 5E7#0000000000000000
(1596560300.158347) can0 5E8#19000001000B0000
(1596560300.159652) can0 5E9#2C7900041A1C0204
(1596560300.159653) can0 5EA#007D7F7D807D7073
(1596560300.159654) can0 5EB#001314001A0C0000
(1596560300.159654) can0 5EC#0090011301130000
(1596560300.160949) can0 5ED#0000000000000000
(1596560300.160950) can0 5EE#0000000000000000
(1596560300.160951) can0 5EF#32010004040C3200
(1596560300.186600) can0 4E0#C01FFF164B000000
(1596560300.187878) can0 4E1#FF10003A0000034D
(1596560300.187879) can0 4E2#2C05011E23475900
(1596560300.187880) can0 4E3#0F12000000000000
(1596560300.187880) can0 500#7D78F14700027EA9
(1596560300.189318) can0 501#0000000000001FFF
(1596560300.189318) can0 502#0000000000001FFF
(1596560300.189319) can0 503#0000000000001FFF
(1596560300.189320) can0 504#0000000000001FFF
(1596560300.189687) can0 505#0000000000001FFF
(1596560300.189688) can0 506#0000000000001FFF
(1596560300.189688) can0 507#0000000000001FFF
(1596560300.189689) can0 508#0000000000001FFF
(1596560300.190989) can0 509#0000000000001FFF
(1596560300.190990) can0 50A#817798A700067EB1
(1596560300.190991) can0 50B#0000000000001FFF
(1596560300.190991) can0 50C#0000000000001FFF
(1596560300.192535) can0 50D#A57B314800047EAF
(1596560300.192535) can0 50E#0000000000001FFF
(1596560300.192536) can0 50F#0000000000001FFF
(1596560300.192537) can0 510#116AA03900237F36
(1596560300.192730) can0 511#2964C02800117EEA
(1596560300.192731) can0 512#002388A200007EDC
(1596560300.192732) can0 513#0000000000001FFF
(1596560300.192733) can0 514#0000000000001FFF
(1596560300.194005) can0 515#0000000000001FFF
(1596560300.194005) can0 516#0000000000001FFF
(1596560300.194006) can0 517#0000000000001FFF
(1596560300.194007) can0 518#0000000000001FFF
(1596560300.195724) can0 519#0000000000001FFF
(1596560300.195725) can0 51A#0000000000001FFF
(1596560300.195726) can0 51B#0000000000001FFF
(1596560300.195726) can0 51C#0000000000001FFF
(1596560300.195734) can0 51D#0000000000001FFF
(1596560300.195734) can0 51E#0000000000001FFF
(1596560300.195735) can0 51F#FDF9E14203FF3EB4
(1596560300.195736) can0 520#358C305E00123F48
(1596560300.197087) can0 521#0000000000001FFF
(1596560300.197088) can0 522#357F08C00003BEAF
(1596560300.197089) can0 523#0000000000001FFF
(1596560300.197099) can0 524#0000000000001FFF
(1596560300.198786) can0 525#0000000000001FFF
(1596560300.198787) can0 526#003C892400007EB7
(1596560300.198788) can0 527#0000000000001FFF
(1596560300.198789) can0 528#616178AC00087EC5
(1596560300.198797) can0 529#0000000000001FFF
(1596560300.198797) can0 52A#0000000000001FFF
(1596560300.198798) can0 52B#0000000000001FFF
(1596560300.198799) can0 52C#0000000000001FFF
(1596560300.200455) can0 52D#0000000000001FFF
(1596560300.200456) can0 52E#0000000000001FFF
(1596560300.200456) can0 52F#01BA418100023EA8
(1596560300.200457) can0 530#0000000000001FFF
(1596560300.201143) can0 531#0000000000001FFF
(1596560300.201144) can0 532#0000000000001FFF
(1596560300.201145) can0 533#0000000000001FFF
(1596560300.201145) can0 534#0000000000001FFF
(1596560300.202686) can0 535#0000000000001FFF
(1596560300.202687) can0 536#0000000000001FFF
(1596560300.202688) can0 537#7D7BE08D00007EB0
(1596560300.202689) can0 538#0000000000001FFF
(1596560300.202954) can0 539#0000000000001FFF
(1596560300.202955) can0 53A#0000000000001FFF
(1596560300.202956) can0 53B#0000000000001FFF
(1596560300.202956) can0 53C#0000000000001FFF
(1596560300.204468) can0 53D#497C10EE00037EAD
(1596560300.204469) can0 53E#0000000000001FFF
(1596560300.204470) can0 53F#0000000000001FFF
(1596560300.204471) can0 540#10660A0A0A0A0A0A
(1596560300.205158) can0 540#110A0A0A660A0A66
(1596560300.205159) can0 540#120A0A6060050A0A
(1596560300.205160) can0 540#130A0A0A0A0A0A0A
(1596560300.205161) can0 540#140A0A0A22600A66
(1596560300.206701) can0 540#150A0A0A000A6A0A
(1596560300.206702) can0 540#160A0A0A0A0A660A
(1596560300.206703) can0 540#170A0A0A0A0A0A20
(1596560300.206703) can0 540#180A0A0A0A0A200A
(1596560300.206990) can0 540#190A0A0A0A0A0A0A
(1596560300.206991) can0 5D0#590998FE50FFCFFC
(1596560300.206992) can0 5D1#590896FE6D004B00
(1596560300.206993) can0 5E4#83847577BF000058
(1596560300.208260) can0 5E5#8B80638080000000
(1596560300.208261) can0 5E6#0000000000000000
(1596560300.208261) can0 5E7#0000000000000000
(1596560300.208262) can0 5E8#19000001001C0000
(1596560300.209555) can0 5E9#2C7B00041A1C0204
(1596560300.209556) can0 5EA#007D7F7D807D7073
(1596560300.209557) can0 5EB#001314001A0C0000
(1596560300.209557) can0 5EC#0090011301130000
(1596560300.210030) can0 5ED#0000000000000000
(1596560300.210031) can0 5EE#0000000000000000
(1596560300.210032) can0 5EF#32010004040C3200
(1596560300.238112) can0 4E0#001FFF164C000000
(1596560300.239637) can0 4E1#FC10003A0000034D
(1596560300.239638) can0 4E2#2C05011E23475900
(1596560300.239639) can0 4E3#0C12000000000000
(1596560300.239639) can0 500#7D78D14600047EAE
(1596560300.239646) can0 501#0000000000001FFF
(1596560300.239647) can0 502#0000000000001FFF
(1596560300.239648) can0 503#0038A17200007EBA
(1596560300.239648) can0 504#0000000000001FFF
(1596560300.241213) can0 505#0000000000001FFF
(1596560300.241214) can0 506#0000000000001FFF
(1596560300.241214) can0 507#0000000000001FFF
(1596560300.241215) can0 508#0000000000001FFF
(1596560300.242473) can0 509#0028F83500004E2E
(1596560300.242474) can0 50A#857770AB000A7EB8
(1596560300.242475) can0 50B#0000000000001FFF
(1596560300.242475) can0 50C#0024A8C300007EE9
(1596560300.242763) can0 50D#A59B294600043EAF
(1596560300.242764) can0 50E#0000000000001FFF
(1596560300.242765) can0 50F#0000000000001FFF
(1596560300.242766) can0 510#3D6AE03E002A7F49
(1596560300.244300) can0 511#2965102700137EF2
(1596560300.244301) can0 512#0943C8A100007EDD
(1596560300.244302) can0 513#0023D8CB00004E00
(1596560300.244303) can0 514#0000000000001FFF
(1596560300.245602) can0 515#0000000000001FFF
(1596560300.245603) can0 516#0000000000001FFF
(1596560300.245604) can0 517#0000000000001FFF
(1596560300.245604) can0 518#0000000000001FFF
(1596560300.245788) can0 519#0000000000001FFF
(1596560300.245789) can0 51A#0000000000001FFF
(1596560300.245790) can0 51B#0000000000001FFF
(1596560300.245791) can0 51C#0000000000001FFF
(1596560300.247069) can0 51D#0000000000001FFF
(1596560300.247070) can0 51E#0000000000001FFF
(1596560300.247071) can0 51F#0000000000001FFF
(1596560300.247072) can0 520#1D6D785B00187F57
(1596560300.248776) can0 521#0000000000001FFF
(1596560300.248777) can0 522#257EE8BD00037EB2
(1596560300.248778) can0 523#0000000000001FFF
(1596560300.248779) can0 524#0000000000001FFF
(1596560300.248797) can0 525#0000000000001FFF
(1596560300.248798) can0 526#0000000000001FFF
(1596560300.248799) can0 527#0000000000001FFF
(1596560300.248799) can0 528#316130B80008FEC8
(1596560300.250437) can0 529#0000000000001FFF
(1596560300.250438) can0 52A#0024C91000007EEC
(1596560300.250439) can0 52B#0000000000001FFF
(1596560300.250440) can0 52C#0000000000001FFF
(1596560300.251117) can0 52D#0000000000001FFF
(1596560300.251118) can0 52E#0000000000001FFF
(1596560300.251118) can0 52F#0000000000001FFF
(1596560300.251119) can0 530#0000000000001FFF
(1596560300.252652) can0 531#0000000000001FFF
(1596560300.252653) can0 532#0000000000001FFF
(1596560300.252654) can0 533#0000000000001FFF
(1596560300.252654) can0 534#0000000000001FFF
(1596560300.252924) can0 535#002610F000007EFE
(1596560300.252925) can0 536#0000000000001FFF
(1596560300.252926) can0 537#7D7C108C00037EB6
(1596560300.252926) can0 538#0000000000001FFF
(1596560300.254199) can0 539#0000000000001FFF
(1596560300.254200) can0 53A#0000000000001FFF
(1596560300.254200) can0 53B#0000000000001FFF
(1596560300.254201) can0 53C#0000000000001FFF
(1596560300.255524) can0 53D#457C50F900057EB1
(1596560300.255525) can0 53E#0000000000001FFF
(1596560300.255526) can0 53F#0000000000001FFF
(1596560300.255526) can0 540#00680A0A000A0A0A
(1596560300.256824) can0 540#010A0A00650A0266
(1596560300.256825) can0 540#020A0A606026000A
(1596560300.256826) can0 540#030A0A0A0A0A0A0A
(1596560300.256827) can0 540#040A0A0A0A630A61
(1596560300.257014) can0 540#050A0A0A0A0A690A
(1596560300.257015) can0 540#06000A0A0A0A0A0A
(1596560300.257016) can0 540#070A0A0A0A000A20
(1596560300.257016) can0 540#080A0A0A0A0A600A
(1596560300.258285) can0 540#090A0A0A0A0A0A0A
(1596560300.258286) can0 5D0#590934FE71003DFF
(1596560300.258287) can0 5D1#590934FE71003DFF
(1596560300.258288) can0 5E4#83847577BF000058
(1596560300.259816) can0 5E5#8B80638080000000
(1596560300.259817) can0 5E6#0000000000000000
(1596560300.259818) can0 5E7#0000000000000000
(1596560300.259818) can0 5E8#19000001002A0000
(1596560300.260033) can0 5E9#2C7D00041A1C0204
(1596560300.260034) can0 5EA#007D7F7D807D7073
(1596560300.260034) can0 5EB#001314001A0C0000
(1596560300.260035) can0 5EC#0090011301130000
(1596560300.261311) can0 5ED#0000000000000000
(1596560300.261312) can0 5EE#0000000000000000
(1596560300.261313) can0 5EF#32010004040C3200
(1596560300.287244) can0 4E0#401FFF164D000000
(1596560300.288517) can0 4E1#FD10003A0000034D
(1596560300.288527) can0 4E2#2C05011E23475900
(1596560300.288528) can0 4E3#0D12000000000000
(1596560300.288529) can0 500#7D78E94300087EB2
(1596560300.288601) can0 501#0000000000001FFF
(1596560300.288602) can0 502#0000000000001FFF
(1596560300.288602) can0 503#0000000000001FFF
(1596560300.288603) can0 504#0000000000001FFF
(1596560300.289859) can0 505#0000000000001FFF
(1596560300.289860) can0 506#0032E92000004062
(1596560300.289861) can0 507#0000000000001FFF
(1596560300.289861) can0 508#0000000000001FFF
(1596560300.291526) can0 509#0000000000001FFF
(1596560300.291527) can0 50A#C97740A1000B7EBD
(1596560300.291528) can0 50B#0000000000001FFF
(1596560300.291528) can0 50C#1144F0C500007EED
(1596560300.291711) can0 50D#8D7AE15700077EB3
(1596560300.291712) can0 50E#0000000000001FFF
(1596560300.291713) can0 50F#0000000000001FFF
(1596560300.291713) can0 510#3D8B083D002A3F53
(1596560300.292982) can0 511#2965D026001B7F02
(1596560300.292983) can0 512#1143E89F00007EE0
(1596560300.292984) can0 513#0000000000001FFF
(1596560300.292985) can0 514#0000000000001FFF
(1596560300.293719) can0 515#0000000000001FFF
(1596560300.293720) can0 516#0000000000001FFF
(1596560300.293721) can0 517#0000000000001FFF
(1596560300.293721) can0 518#0000000000001FFF
(1596560300.294741) can0 519#0000000000001FFF
(1596560300.294742) can0 51A#0000000000001FFF
(1596560300.294742) can0 51B#003FB08C0000BEC4
(1596560300.294743) can0 51C#0000000000001FFF
(1596560300.296529) can0 51D#0000000000001FFF
(1596560300.296530) can0 51E#0000000000001FFF
(1596560300.296531) can0 51F#0000000000001FFF
(1596560300.296531) can0 520#1D8DA05A00183F5D
(1596560300.296785) can0 521#0000000000001FFF
(1596560300.296786) can0 522#1D7EE8BC0006FEBD
(1596560300.296787) can0 523#013D39910000FEC0
(1596560300.296787) can0 524#0000000000001FFF
(1596560300.298790) can0 525#0000000000001FFF
(1596560300.298792) can0 526#0000000000001FFF
(1596560300.298792) can0 527#0000000000001FFF
(1596560300.298793) can0 528#356140BB00087ECB
(1596560300.298800) can0 529#0000000000001FFF
(1596560300.298801) can0 52A#0000000000001FFF
(1596560300.298801) can0 52B#0000000000001FFF
(1596560300.298802) can0 52C#0000000000001FFF
(1596560300.300396) can0 52D#0000000000001FFF
(1596560300.300397) can0 52E#0000000000001FFF
(1596560300.300398) can0 52F#0000000000001FFF
(1596560300.300398) can0 530#0000000000001FFF
(1596560300.301071) can0 531#0000000000001FFF
(1596560300.301072) can0 532#0000000000001FFF
(1596560300.301073) can0 533#0000000000001FFF
(1596560300.301074) can0 534#0000000000001FFF
(1596560300.302615) can0 535#094628EF00007EFE
(1596560300.302616) can0 536#0000000000001FFF
(1596560300.302617) can0 537#7D9C088A00033EB6
(1596560300.302617) can0 538#0000000000001FFF
(1596560300.302938) can0 539#0000000000001FFF
(1596560300.302939) can0 53A#0000000000001FFF
(1596560300.302940) can0 53B#0000000000001FFF
(1596560300.304469) can0 53C#0000000000001FFF
(1596560300.304470) can0 53D#597C990100087EB6
(1596560300.304470) can0 53E#0000000000001FFF
(1596560300.304471) can0 53F#0000000000001FFF
(1596560300.304472) can0 540#10640A0A0A0A0A02
(1596560300.305149) can0 540#110A0A0A600A2060
(1596560300.305150) can0 540#120A0A6060280A0A
(1596560300.305151) can0 540#130A0A0A0A0A0A00
(1596560300.305152) can0 540#140A0A0A0A630A63
(1596560300.306688) can0 540#15200A0A0A0A660A
(1596560300.306689) can0 540#160A0A0A0A0A0A0A
(1596560300.306699) can0 540#170A0A0A0A200A20
(1596560300.306700) can0 540#180A0A0A0A0A610A
(1596560300.306987) can0 540#190A0A0A0A0A0A0A
(1596560300.306988) can0 5D0#59096AFE62FFC8F9
(1596560300.306989) can0 5D1#590956FE750040FC
(1596560300.306989) can0 5E4#82837577C0000058
(1596560300.308258) can0 5E5#8B80638080000000
(1596560300.308259) can0 5E6#0000000000000000
(1596560300.308259) can0 5E7#0000000000000000
(1596560300.308261) can0 5E8#1900000100360000
(1596560300.309570) can0 5E9#2C7F00041A1C0204
(1596560300.309571) can0 5EA#007D7F7D807D7073
(1596560300.309571) can0 5EB#001314001A0C0000
(1596560300.309572) can0 5EC#0090011301130000
(1596560300.310032) can0 5ED#0000000000000000
(1596560300.310032) can0 5EE#0000000000000000
(1596560300.310033) can0 5EF#32010004040C3200
(1596560300.337136) can0 4E0#801FFF164E000000
(1596560300.338448) can0 4E1#FE10003A0000034D
(1596560300.338449) can0 4E2#2C05011E23475900
(1596560300.338449) can0 4E3#0E12000000000000
(1596560300.338450) can0 500#7D78A141000A7EB7
(1596560300.338699) can0 501#0000000000001FFF
(1596560300.338699) can0 502#0000000000001FFF
(1596560300.338700) can0 503#0000000000001FFF
(1596560300.338701) can0 504#0000000000001FFF
(1596560300.340016) can0 505#0000000000001FFF
(1596560300.340017) can0 506#0000000000001FFF
(1596560300.340017) can0 507#0000000000001FFF
(1596560300.340018) can0 508#0000000000001FFF
(1596560300.341324) can0 509#0000000000001FFF
(1596560300.341324) can0 50A#BD7718A5000D7EC1
(1596560300.341325) can0 50B#0000000000001FFF
(1596560300.341326) can0 50C#1D4558BC00017EF2
(1596560300.341760) can0 50D#8D9AD95500073EB4
(1596560300.341761) can0 50E#0000000000001FFF
(1596560300.341761) can0 50F#0000000000001FFF
(1596560300.341762) can0 510#3D8B383C002A3F5E
(1596560300.343736) can0 511#25666824001F7F0E
(1596560300.343737) can0 512#3564209E00017EE4
(1596560300.343738) can0 513#0000000000001FFF
(1596560300.343739) can0 514#0000000000001FFF
(1596560300.343757) can0 515#0000000000001FFF
(1596560300.343758) can0 516#0000000000001FFF
(1596560300.343759) can0 517#0000000000001FFF
(1596560300.343759) can0 518#0000000000001FFF
(1596560300.345567) can0 519#0000000000001FFF
(1596560300.345568) can0 51A#0000000000001FFF
(1596560300.345568) can0 51B#0000000000001FFF
(1596560300.345569) can0 51C#0000000000001FFF
(1596560300.345828) can0 51D#0000000000001FFF
(1596560300.345829) can0 51E#0000000000001FFF
(1596560300.345829) can0 51F#0000000000001FFF
(1596560300.345830) can0 520#1D8DC85900183F62
(1596560300.347084) can0 521#003DE91B00007EC6
(1596560300.347085) can0 522#2D7F58BE0009FEC3
(1596560300.347085) can0 523#4D5D618C0000FEC2
(1596560300.347086) can0 524#0000000000001FFF
(1596560300.348690) can0 525#0000000000001FFF
(1596560300.348691) can0 526#0000000000001FFF
(1596560300.348691) can0 527#0037908800007EC4
(1596560300.348692) can0 528#4D6160BD00097ED3
(1596560300.348848) can0 529#0000000000001FFF
(1596560300.348849) can0 52A#0000000000001FFF
(1596560300.348850) can0 52B#0000000000001FFF
(1596560300.348851) can0 52C#0000000000001FFF
(1596560300.350056) can0 52D#003B58B400007EC8
(1596560300.350057) can0 52E#0000000000001FFF
(1596560300.350057) can0 52F#0000000000001FFF
(1596560300.350058) can0 530#0000000000001FFF
(1596560300.350919) can0 531#0000000000001FFF
(1596560300.350920) can0 532#0000000000001FFF
(1596560300.350920) can0 533#0000000000001FFF
(1596560300.352205) can0 534#0000000000001FFF
(1596560300.352207) can0 535#194670ED00007F02
(1596560300.352207) can0 536#0000000000001FFF
(1596560300.352208) can0 537#797CC8890007FEBC
(1596560300.352209) can0 538#0000000000001FFF
(1596560300.353829) can0 539#0000000000001FFF
(1596560300.353829) can0 53A#0000000000001FFF
(1596560300.353830) can0 53B#0000000000001FFF
(1596560300.353831) can0 53C#0000000000001FFF
(1596560300.353915) can0 53D#1D7C891100097EB9
(1596560300.353916) can0 53E#0000000000001FFF
(1596560300.353917) can0 53F#003D30E600007EC6
(1596560300.353917) can0 540#00600A0A0A0A0A0A
(1596560300.355408) can0 540#010A0A0A620A2060
(1596560300.355409) can0 540#020A0A6060280A0A
(1596560300.355409) can0 540#030A0A0A0A0A0A0A
(1596560300.355410) can0 540#040A0A0A0A630061
(1596560300.356709) can0 540#05230A0A0A006A0A
(1596560300.356710) can0 540#060A0A0A020A0A0A
(1596560300.356711) can0 540#070A0A0A0A200A63
(1596560300.356712) can0 540#080A0A0A0A0A620A
(1596560300.356988) can0 540#0901010101010101
(1596560300.356989) can0 5D0#5906D5FE61FF5BF9
(1596560300.356990) can0 5D1#590977FE7F004700
(1596560300.356990) can0 5E4#83837577BF000058
(1596560300.358253) can0 5E5#8B80638080000000
(1596560300.358254) can0 5E6#0000000000000000
(1596560300.358254) can0 5E7#0000000000000000
(1596560300.358255) can0 5E8#19000001003E0000
(1596560300.359816) can0 5E9#2C8100041A1C0204
(1596560300.359817) can0 5EA#007D7F7D807D7073
(1596560300.359818) can0 5EB#001314001A0C0000
(1596560300.359819) can0 5EC#0090011301130000
(1596560300.360032) can0 5ED#0000000000000000
(1596560300.360033) can0 5EE#0000000000000000
(1596560300.360033) can0 5EF#32010003040B3100
(1596560300.387200) can0 4E0#C01FFF164F000000
(1596560300.388475) can0 4E1#FF1000390000034D
(1596560300.388476) can0 4E2#2C05011E23475900
(1596560300.388477) can0 4E3#0F12000000000000
(1596560300.388478) can0 500#7D78C140000E7EC0
(1596560300.388744) can0 501#0000000000001FFF
(1596560300.388745) can0 502#0000000000001FFF
(1596560300.388745) can0 503#0000000000001FFF
(1596560300.388746) can0 504#0000000000001FFF
(1596560300.390011) can0 505#0000000000001FFF
(1596560300.390012) can0 506#0000000000001FFF
(1596560300.390013) can0 507#0000000000001FFF
(1596560300.390013) can0 508#0000000000001FFF
(1596560300.391530) can0 509#0000000000001FFF
(1596560300.391531) can0 50A#C57708A7000E7EC6
(1596560300.391531) can0 50B#0000000000001FFF
(1596560300.391532) can0 50C#656590C000017EF9
(1596560300.391799) can0 50D#8D9AD15300073EB5
(1596560300.391800) can0 50E#0000000000001FFF
(1596560300.391801) can0 50F#0000000000001FFF
(1596560300.391802) can0 510#3D8B603B002A3F68
(1596560300.392823) can0 511#2567182300217F19
(1596560300.392824) can0 512#3164309C00037EE8
(1596560300.392824) can0 513#0000000000001FFF
(1596560300.392825) can0 514#0026711800004D02
(1596560300.393824) can0 515#0000000000001FFF
(1596560300.393824) can0 516#0000000000001FFF
(1596560300.393825) can0 517#0000000000001FFF
(1596560300.393826) can0 518#0000000000001FFF
(1596560300.395578) can0 519#0000000000001FFF
(1596560300.395579) can0 51A#0000000000001FFF
(1596560300.395580) can0 51B#0000000000001FFF
(1596560300.395580) can0 51C#0000000000001FFF
(1596560300.395866) can0 51D#0000000000001FFF
(1596560300.395867) can0 51E#0000000000001FFF
(1596560300.395868) can0 51F#0000000000001FFF
(1596560300.395868) can0 520#1D8DE85900183F68
(1596560300.397015) can0 521#115E291A00007EC8
(1596560300.397016) can0 522#017F38BF000B7EC7
(1596560300.397017) can0 523#757DA98B0002FEC5
(1596560300.397018) can0 524#0000000000001FFF
(1596560300.398503) can0 525#0000000000001FFF
(1596560300.398505) can0 526#0000000000001FFF
(1596560300.398505) can0 527#0000000000001FFF
(1596560300.398506) can0 528#296130BE000BFED9
(1596560300.399180) can0 529#0000000000001FFF
(1596560300.399181) can0 52A#0000000000001FFF
(1596560300.399181) can0 52B#0000000000001FFF
(1596560300.399182) can0 52C#0000000000001FFF
(1596560300.400731) can0 52D#ED5AE0B100007EC9
(1596560300.400732) can0 52E#0000000000001FFF
(1596560300.400733) can0 52F#0000000000001FFF
(1596560300.400733) can0 530#0000000000001FFF
(1596560300.400970) can0 531#0000000000001FFF
(1596560300.400971) can0 532#0000000000001FFF
(1596560300.400971) can0 533#0000000000001FFF
(1596560300.400972) can0 534#0000000000001FFF
(1596560300.402295) can0 535#4D6678F100007F03
(1596560300.402296) can0 536#0000000000001FFF
(1596560300.402296) can0 537#657CB88700097EC0
(1596560300.402297) can0 538#0000000000001FFF
(1596560300.403828) can0 539#0000000000001FFF
(1596560300.403829) can0 53A#0000000000001FFF
(1596560300.403830) can0 53B#0000000000001FFF
(1596560300.403830) can0 53C#0000000000001FFF
(1596560300.404039) can0 53D#1D9C890F00093EBB
(1596560300.404040) can0 53E#0000000000001FFF
(1596560300.404041) can0 53F#0000000000001FFF
(1596560300.404041) can0 540#10630A0A0A0A0A0A
(1596560300.405375) can0 540#110A0A0A600A2260
(1596560300.405376) can0 540#120A0A6060260A00
(1596560300.405377) can0 540#130A0A0A0A0A0A0A
(1596560300.405377) can0 540#140A0A0A0A632060
(1596560300.406932) can0 540#15600A0A0A0A680A
(1596560300.406934) can0 540#160A0A0A210A0A0A
(1596560300.406934) can0 540#170A0A0A0A200A60
(1596560300.406935) can0 540#180A0A0A0A0A620A
(1596560300.407020) can0 540#190A0A0A0A0A0A0A
(1596560300.407021) can0 5D0#590982FE86003DFE
(1596560300.407021) can0 5D1#590982FE86003DFE
(1596560300.407022) can0 5E4#83837577C0000058
(1596560300.408526) can0 5E5#8B80638080000000
(1596560300.408527) can0 5E6#0000000000000000
(1596560300.408527) can0 5E7#0000000000000000
(1596560300.408528) can0 5E8#1900000100460000
(1596560300.409276) can0 5E9#2C8300041A1C0204
(1596560300.409277) can0 5EA#007D7F7D807D7073
(1596560300.409278) can0 5EB#001314001A0C0000
(1596560300.409279) can0 5EC#0090011301130000
(1596560300.410815) can0 5ED#0000000000000000
(1596560300.410816) can0 5EE#0000000000000000
(1596560300.410816) can0 5EF#32010104040C3300
(1596560300.437944) can0 4E0#001FFF1650000000
(1596560300.439224) can0 4E1#FC10003A0000034D
(1596560300.439225) can0 4E2#2C05011E23475900
(1596560300.439225) can0 4E3#0C12000000000000
(1596560300.439226) can0 500#7D98B13E000E3EC2
(1596560300.439430) can0 501#0000000000001FFF
(1596560300.439431) can0 502#003E00E400007ED2
(1596560300.439431) can0 503#0000000000001FFF
(1596560300.439432) can0 504#0000000000001FFF
(1596560300.440953) can0 505#0000000000001FFF
(1596560300.440954) can0 506#0000000000001FFF
(1596560300.440955) can0 507#0000000000001FFF
(1596560300.440955) can0 508#0000000000001FFF
(1596560300.441646) can0 509#0000000000001FFF
(1596560300.441647) can0 50A#0D76E09D000F7ECB
(1596560300.441647) can0 50B#0000000000001FFF
(1596560300.441648) can0 50C#658598BF00013EF9
(1596560300.443316) can0 50D#AD7B115B000B7EBC
(1596560300.443326) can0 50E#0000000000001FFF
(1596560300.443327) can0 50F#0000000000001FFF
(1596560300.443328) can0 510#FD6A183400287F6F
(1596560300.443502) can0 511#2568002200267F28
(1596560300.443503) can0 512#3564509B00067EED
(1596560300.443504) can0 513#0000000000001FFF
(1596560300.443504) can0 514#0000000000001FFF
(1596560300.444791) can0 515#0000000000001FFF
(1596560300.444792) can0 516#0000000000001FFF
(1596560300.444792) can0 517#0000000000001FFF
(1596560300.444793) can0 518#0000000000001FFF
(1596560300.446230) can0 519#003A193500007ECF
(1596560300.446231) can0 51A#0000000000001FFF
(1596560300.446232) can0 51B#0000000000001FFF
(1596560300.446232) can0 51C#0000000000001FFF
(1596560300.446589) can0 51D#0000000000001FFF
(1596560300.446590) can0 51E#0000000000001FFF
(1596560300.446591) can0 51F#0000000000001FFF
(1596560300.446592) can0 520#0000000000001FFF
(1596560300.448794) can0 521#155E191000007ECA
(1596560300.448795) can0 522#157F38BA000D7ECC
(1596560300.448796) can0 523#797DD9870005FECA
(1596560300.448796) can0 524#0000000000001FFF
(1596560300.448804) can0 525#0000000000001FFF
(1596560300.448805) can0 526#0000000000001FFF
(1596560300.448806) can0 527#0000000000001FFF
(1596560300.448806) can0 528#096158BB000CFEDC
(1596560300.450376) can0 529#0000000000001FFF
(1596560300.450377) can0 52A#0000000000001FFF
(1596560300.450378) can0 52B#0000000000001FFF
(1596560300.450379) can0 52C#0000000000001FFF
(1596560300.450638) can0 52D#EDFAD0B000003EC9
(1596560300.450639) can0 52E#0000000000001FFF
(1596560300.450640) can0 52F#0000000000001FFF
(1596560300.450640) can0 530#0000000000001FFF
(1596560300.452153) can0 531#0000000000001FFF
(1596560300.452154) can0 532#0000000000001FFF
(1596560300.452155) can0 533#0000000000001FFF
(1596560300.452155) can0 534#0000000000001FFF
(1596560300.453468) can0 535#5566C0EC00017F05
(1596560300.453469) can0 536#0000000000001FFF
(1596560300.453469) can0 537#597CC085000C7EC5
(1596560300.453470) can0 538#0033C8B900007EDD
(1596560300.453680) can0 539#0000000000001FFF
(1596560300.453681) can0 53A#0000000000001FFF
(1596560300.453681) can0 53B#0000000000001FFF
(1596560300.453682) can0 53C#0000000000001FFF
(1596560300.454871) can0 53D#1D9C810E00093EBD
(1596560300.454872) can0 53E#0000000000001FFF
(1596560300.454873) can0 53F#0000000000001FFF
(1596560300.454874) can0 540#00630A000A0A0A0A
(1596560300.456412) can0 540#010A0A0A600A2267
(1596560300.456413) can0 540#020A0A6060670A0A
(1596560300.456414) can0 540#030A0A0A0A000A0A
(1596560300.456414) can0 540#040A0A0A0A0A2264
(1596560300.456718) can0 540#05670A0A0A0A640A
(1596560300.456718) can0 540#060A0A0A210A0A0A
(1596560300.456719) can0 540#070A0A0A0A200A60
(1596560300.456720) can0 540#08010A0A0A0A620A
(1596560300.458236) can0 540#090A0A0A0A0A0A0A
(1596560300.458237) can0 5D0#59095BFE8A0045FA
(1596560300.458238) can0 5D1#5907C0FEA000DDFD
(1596560300.458239) can0 5E4#83847577BF000058
(1596560300.458909) can0 5E5#8A81638080000000
(1596560300.458910) can0 5E6#0000000000000000
(1596560300.458911) can0 5E7#0000000000000000
(1596560300.458911) can0 5E8#1900000100460000
(1596560300.460213) can0 5E9#2C8500041A1C0204
(1596560300.460214) can0 5EA#007D7F7D807D7073
(1596560300.460215) can0 5EB#001314001A0C0000
(1596560300.460216) can0 5EC#0090011301130000
(1596560300.461518) can0 5ED#0000000000000000
(1596560300.461519) can0 5EE#0000000000000000
(1596560300.461529) can0 5EF#32010004040C3200
(1596560300.488034) can0 4E0#401FFF1651000000
(1596560300.489554) can0 4E1#FD10003A0000034D
(1596560300.489555) can0 4E2#2C05011E23475900
(1596560300.489556) can0 4E3#0D12000000000000
(1596560300.489557) can0 500#7D98A93C000E3EC4
(1596560300.489564) can0 501#0000000000001FFF
(1596560300.489565) can0 502#0000000000001FFF
(1596560300.489565) can0 503#0000000000001FFF
(1596560300.489566) can0 504#0000000000001FFF
(1596560300.490626) can0 505#0000000000001FFF
(1596560300.490627) can0 506#0000000000001FFF
(1596560300.490627) can0 507#0000000000001FFF
(1596560300.490628) can0 508#0000000000001FFF
(1596560300.492349) can0 509#0000000000001FFF
(1596560300.492350) can0 50A#0D96C89C000F3ECE
(1596560300.492351) can0 50B#0000000000001FFF
(1596560300.492352) can0 50C#5D6608B700057EFF
(1596560300.492637) can0 50D#AD9B0959000B3EBE
(1596560300.492638) can0 50E#0000000000001FFF
(1596560300.492638) can0 50F#0000000000001FFF
(1596560300.492639) can0 510#CD6A402E00247F72
(1596560300.494153) can0 511#2568F021002A7F37
(1596560300.494154) can0 512#2D64689900077EEF
(1596560300.494155) can0 513#0000000000001FFF
(1596560300.494156) can0 514#0000000000001FFF
(1596560300.494981) can0 515#0000000000001FFF
(1596560300.494982) can0 516#0000000000001FFF
(1596560300.494983) can0 517#0000000000001FFF
(1596560300.494983) can0 518#0000000000001FFF
(1596560300.496530) can0 519#0000000000001FFF
(1596560300.496531) can0 51A#0000000000001FFF
(1596560300.496532) can0 51B#0000000000001FFF
(1596560300.496533) can0 51C#0000000000001FFF
(1596560300.496722) can0 51D#0000000000001FFF
(1596560300.496723) can0 51E#0000000000001FFF
(1596560300.496724) can0 51F#0000000000001FFF
(1596560300.498475) can0 520#0000000000001FFF
(1596560300.498476) can0 521#357E59150001FECE
(1596560300.498477) can0 522#EDBF60C8000FFED2
(1596560300.498478) can0 523#7D7DF98C0006FECC
(1596560300.498478) can0 524#0000000000001FFF
(1596560300.498743) can0 525#0000000000001FFF
(1596560300.498744) can0 526#0000000000001FFF
(1596560300.498745) can0 527#0000000000001FFF
(1596560300.498745) can0 528#E56148C0000C7EDE
(1596560300.500319) can0 529#0000000000001FFF
(1596560300.500320) can0 52A#0000000000001FFF
(1596560300.500321) can0 52B#0000000000001FFF
(1596560300.500321) can0 52C#0000000000001FFF
(1596560300.501004) can0 52D#E55A88AD00007ECB
(1596560300.501005) can0 52E#0000000000001FFF
(1596560300.501006) can0 52F#0000000000001FFF
(1596560300.501006) can0 530#0000000000001FFF
(1596560300.502532) can0 531#E93D517003FFFED2
(1596560300.502533) can0 532#0000000000001FFF
(1596560300.502534) can0 533#0000000000001FFF
(1596560300.502535) can0 534#0000000000001FFF
(1596560300.502854) can0 535#5D6700E900067F0C
(1596560300.502855) can0 536#002688D600004D03
(1596560300.502856) can0 537#6D7EB0830010FECF
(1596560300.502856) can0 538#0000000000001FFF
(1596560300.504156) can0 539#0000000000001FFF
(1596560300.504157) can0 53A#0000000000001FFF
(1596560300.504158) can0 53B#0000000000001FFF
(1596560300.504159) can0 53C#0000000000001FFF
(1596560300.505458) can0 53D#E57BE116000D7EC3
(1596560300.505459) can0 53E#0000000000001FFF
(1596560300.505460) can0 53F#0000000000001FFF
(1596560300.505460) can0 540#10630A0A0A0A0A0A
(1596560300.505889) can0 540#110A0A0A600A2267
(1596560300.505890) can0 540#120A0A6060660A0A
(1596560300.505891) can0 540#130A0A0A0A0A0A0A
(1596560300.505900) can0 540#140A0A0A0A0A2160
(1596560300.506916) can0 540#15600A0A0A0A600A
(1596560300.506917) can0 540#160A0A0A230A0A0A
(1596560300.506917) can0 540#17250A0A0A600060
(1596560300.506918) can0 540#180A0A0A0A0A610A
(1596560300.508508) can0 540#190A0A0A0A0A0A0A
(1596560300.508509) can0 5D0#590690FE7AFFBCF6
(1596560300.508510) can0 5D1#5907A9FEA300E1FC
(1596560300.508511) can0 5E4#83837577BF000057
(1596560300.509187) can0 5E5#8A80638080000000
(1596560300.509188) can0 5E6#0000000000000000
(1596560300.509189) can0 5E7#0000000000000000
(1596560300.509189) can0 5E8#1900000100460000
(1596560300.510729) can0 5E9#2C8700041A1C0204
(1596560300.510730) can0 5EA#007D7F7D807D7073
(1596560300.510731) can0 5EB#001314001A0C0000
(1596560300.510731) can0 5EC#0090011301130000
(1596560300.510950) can0 5ED#0000000000000000
(1596560300.510950) can0 5EE#0000000000000000
(1596560300.510951) can0 5EF#32010004040C3200
(1596560300.538036) can0 4E0#801FFF1652000000
(1596560300.538685) can0 4E1#FE10003A0000034D
(1596560300.538686) can0 4E2#2C05011E23475900
(1596560300.538687) can0 4E3#0E12000000000000
(1596560300.538688) can0 500#7D98A13B000E3EC7
(1596560300.539908) can0 501#0000000000001FFF
(1596560300.539909) can0 502#0000000000001FFF
(1596560300.539910) can0 503#0000000000001FFF
(1596560300.539911) can0 504#002770A300007F1C
(1596560300.541454) can0 505#0000000000001FFF
(1596560300.541455) can0 506#0000000000001FFF
(1596560300.541455) can0 507#0000000000001FFF
(1596560300.541462) can0 508#0000000000001FFF
(1596560300.541463) can0 509#0000000000001FFF
(1596560300.541463) can0 50A#0D96B09A000F3ED1
(1596560300.541464) can0 50B#003348B300007EEF
(1596560300.541465) can0 50C#416630AE00087F05
(1596560300.542792) can0 50D#E17B815F000E7EC5
(1596560300.542793) can0 50E#0000000000001FFF
(1596560300.542794) can0 50F#0000000000001FFF
(1596560300.542795) can0 510#CD8A682E00243F7A
(1596560300.544120) can0 511#2569D820002E7F48
(1596560300.544121) can0 512#2564409A000AFEF6
(1596560300.544121) can0 513#0000000000001FFF
(1596560300.544122) can0 514#0000000000001FFF
(1596560300.544494) can0 515#0000000000001FFF
(1596560300.544495) can0 516#0000000000001FFF
(1596560300.544496) can0 517#003E38E700004DEB
(1596560300.544497) can0 518#0000000000001FFF
(1596560300.545777) can0 519#0000000000001FFF
(1596560300.545778) can0 51A#0000000000001FFF
(1596560300.545778) can0 51B#0000000000001FFF
(1596560300.545779) can0 51C#0000000000001FFF
(1596560300.546550) can0 51D#0000000000001FFF
(1596560300.546551) can0 51E#0000000000001FFF
(1596560300.546552) can0 51F#0000000000001FFF
(1596560300.546552) can0 520#0000000000001FFF
(1596560300.548795) can0 521#4D7E611400047ED1
(1596560300.548796) can0 522#0000000000001FFF
(1596560300.548797) can0 523#697DD9840006BECE
(1596560300.548797) can0 524#003ED9A00000BED9
(1596560300.548804) can0 525#0028E0E900007F1F
(1596560300.548805) can0 526#0000000000001FFF
(1596560300.548805) can0 527#0000000000001FFF
(1596560300.548806) can0 528#E58148BE000C3EE1
(1596560300.550384) can0 529#0000000000001FFF
(1596560300.550385) can0 52A#0000000000001FFF
(1596560300.550386) can0 52B#0000000000001FFF
(1596560300.550386) can0 52C#0000000000001FFF
(1596560300.550601) can0 52D#CD5A28AB00017ECF
(1596560300.550602) can0 52E#0000000000001FFF
(1596560300.550603) can0 52F#0000000000001FFF
(1596560300.550603) can0 530#0000000000001FFF
(1596560300.552120) can0 531#E9FD516E03FF3ED0
(1596560300.552121) can0 532#0000000000001FFF
(1596560300.552122) can0 533#0000000000001FFF
(1596560300.552122) can0 534#0000000000001FFF
